[基本信息]
产品名称 = "250KW逆变器"
修改者 = ""
型号 = "250KW"
备注 = ""
检验数量 = ""

[项目名]
Project1 = "测试平台初始化"
Project2 = "控制PLC三相三线"
Project3 = "控制3390功率分析仪"
Project4 = "闭合辅助电"
Project5 = "确认机器状态--报警"
Project6 = "设置逆变器参数"
Project7 = "R相电流 Offset校准"
Project8 = "S相电流 Offset校准"
Project9 = "T相电流 Offset校准"
Project10 = "R电网电压 Offset校准"
Project11 = "S电网电压 Offset校准"
Project12 = "T电网电压 Offset校准"
Project13 = "R逆变电压 Offset校准"
Project14 = "S逆变电压 Offset校准"
Project15 = "T逆变电压 Offset校准"
Project16 = "MPPT 1 电流 Offset校准"
Project17 = "MPPT 2 电流 Offset校准"
Project18 = "MPPT 3 电流 Offset校准"
Project19 = "MPPT 4 电流 Offset校准"
Project20 = "MPPT 5 电流 Offset校准"
Project21 = "MPPT 6 电流 Offset校准"
Project22 = "MPPT 7 电流 Offset校准"
Project23 = "MPPT 8 电流 Offset校准"
Project24 = "MPPT 9 电流 Offset校准"
Project25 = "MPPT 10 电流 Offset校准"
Project26 = "MPPT 11 电流 Offset校准"
Project27 = "MPPT 12 电流 Offset校准"
Project28 = "PV1组串电流 Offset校准"
Project29 = "PV3组串电流 Offset校准"
Project30 = "PV5组串电流 Offset校准"
Project31 = "PV7组串电流 Offset校准"
Project32 = "PV9组串电流 Offset校准"
Project33 = "PV11组串电流 Offset校准"
Project34 = "PV13组串电流 Offset校准"
Project35 = "PV15组串电流 Offset校准"
Project36 = "PV17组串电流 Offset校准"
Project37 = "PV19组串电流 Offset校准"
Project38 = "PV21组串电流 Offset校准"
Project39 = "PV23组串电流 Offset校准"
Project40 = "设置时间"
Project41 = "写序列号"
Project42 = "断开辅助电"
Project43 = "设置DC源"
Project44 = "控制DC输出"
Project45 = "确认机器状态--报警"
Project46 = "写eeprom使能"
Project47 = "机器型号读取"
Project48 = "读LCD版本"
Project49 = "读DSP版本"
Project50 = "读CPLD版本"
Project51 = "读MCU版本"
Project52 = "同温判断"
Project53 = "MPPT1电压Scale校准"
Project54 = "MPPT2电压Scale校准"
Project55 = "MPPT3电压Scale校准"
Project56 = "MPPT4电压Scale校准"
Project57 = "MPPT5电压Scale校准"
Project58 = "MPPT6电压Scale校准"
Project59 = "MPPT7电压Scale校准"
Project60 = "MPPT8电压Scale校准"
Project61 = "MPPT9电压Scale校准"
Project62 = "MPPT10电压Scale校准"
Project63 = "MPPT11电压Scale校准"
Project64 = "MPPT12电压Scale校准"
Project65 = "BUS+ Volt Scale 校准"
Project66 = "BUS- Volt Scale 校准"
Project67 = "测试ISO"
Project68 = "确认机器状态--待机"
Project69 = "读ISO"
Project70 = "断开ISO 闭合GFCI"
Project71 = "升功率25KW"
Project72 = "确认机器状态--待机"
Project73 = "远程开机"
Project74 = "确认机器状态--开机"
Project75 = "GFCI测试"
Project76 = "断开GFCI"
Project77 = "控制AC输出"
Project78 = "确认机器状态--待机"
Project79 = "发送定点指令"
Project80 = "风扇堵转测试"
Project81 = "R电网电压Scale校准"
Project82 = "S电网电压Scale校准"
Project83 = "T电网电压Scale校准"
Project84 = "PV1电压采样"
Project85 = "PV2电压采样"
Project86 = "PV3电压采样"
Project87 = "PV4电压采样"
Project88 = "PV5电压采样"
Project89 = "PV6电压采样"
Project90 = "PV7电压采样"
Project91 = "PV8电压采样"
Project92 = "PV9电压采样"
Project93 = "PV10电压采样"
Project94 = "PV11电压采样"
Project95 = "PV12电压采样"
Project96 = "BUS+采样"
Project97 = "BUS+电压误差"
Project98 = "BUS-采样"
Project99 = "BUS-电压误差"
Project100 = "升功率25KW"
Project101 = "读ISO-1"
Project102 = "确认功率为25KW"
Project103 = "读GFCI-1"
Project104 = "升功率125KW"
Project105 = "确认功率为125KW"
Project106 = "确认MPPT1000V"
Project107 = "MPPT1电流Scale校准"
Project108 = "MPPT2电流Scale校准"
Project109 = "MPPT3电流Scale校准"
Project110 = "MPPT4电流Scale校准"
Project111 = "MPPT5电流Scale校准"
Project112 = "MPPT6电流Scale校准"
Project113 = "MPPT7电流Scale校准"
Project114 = "MPPT8电流Scale校准"
Project115 = "MPPT9电流Scale校准"
Project116 = "MPPT10电流Scale校准"
Project117 = "MPPT11电流Scale校准"
Project118 = "MPPT12电流Scale校准"
Project119 = "R逆变电压Scale校准"
Project120 = "S逆变电压Scale校准"
Project121 = "T逆变电压Scale校准"
Project122 = "R逆变电流Scale校准"
Project123 = "S逆变电流Scale校准"
Project124 = "T逆变电流Scale校准"
Project125 = "eeprom checksum验证"
Project126 = "升功率25KW"
Project127 = "确认功率为25KW"
Project128 = "R MCU电网电压采样"
Project129 = "S MCU电网电压采样"
Project130 = "T MCU电网电压采样"
Project131 = "R电网电压采样"
Project132 = "S电网电压采样"
Project133 = "T电网电压采样"
Project134 = "升功率50KW"
Project135 = "确认功率为50KW"
Project136 = "R电网电流采样"
Project137 = "S电网电流采样"
Project138 = "T电网电流采样"
Project139 = "PV1输入电流"
Project140 = "PV2输入电流"
Project141 = "PV3输入电流"
Project142 = "PV4输入电流"
Project143 = "PV5输入电流"
Project144 = "PV6输入电流"
Project145 = "PV7输入电流"
Project146 = "PV8输入电流"
Project147 = "PV9输入电流"
Project148 = "PV10输入电流"
Project149 = "PV11输入电流"
Project150 = "PV12输入电流"
Project151 = "PV1组串电流"
Project152 = "PV3组串电流"
Project153 = "PV5组串电流"
Project154 = "PV7组串电流"
Project155 = "PV9组串电流"
Project156 = "PV11组串电流"
Project157 = "PV13组串电流"
Project158 = "PV15组串电流"
Project159 = "PV17组串电流"
Project160 = "PV19组串电流"
Project161 = "PV21组串电流"
Project162 = "PV23组串电流"
Project163 = "控制功率为125KW"
Project164 = "确认功率为125KW"
Project165 = "R电网电流采样"
Project166 = "S电网电流采样"
Project167 = "T电网电流采样"
Project168 = "PV1输入电流"
Project169 = "PV2输入电流"
Project170 = "PV3输入电流"
Project171 = "PV4输入电流"
Project172 = "PV5输入电流"
Project173 = "PV6输入电流"
Project174 = "PV7输入电流"
Project175 = "PV8输入电流"
Project176 = "PV9输入电流"
Project177 = "PV10输入电流"
Project178 = "PV11输入电流"
Project179 = "PV12输入电流"
Project180 = "PV1组串电流"
Project181 = "PV3组串电流"
Project182 = "PV5组串电流"
Project183 = "PV7组串电流"
Project184 = "PV9组串电流"
Project185 = "PV11组串电流"
Project186 = "PV13组串电流"
Project187 = "PV15组串电流"
Project188 = "PV17组串电流"
Project189 = "PV19组串电流"
Project190 = "PV21组串电流"
Project191 = "PV23组串电流"
Project192 = "控制功率为25KW"
Project193 = "确认功率为25KW"
Project194 = "发送关机指令"
Project195 = "直流源断电"
Project196 = "插入全部端子"
Project197 = "控制逆变器上电"
Project198 = "高压不开机"
Project199 = "确认待机"
Project200 = "高压开机"
Project201 = "确认开机"
Project202 = "设置功率为25KW"
Project203 = "发送定点指令"
Project204 = "确认开机"
Project205 = "功率校准"
Project206 = "降功率为25KW"
Project207 = "逆变器关机"
Project208 = "控制DC AC 断开"
Project209 = "结束测试"

[项目启用状态]
Project1 = TRUE
Project2 = TRUE
Project3 = TRUE
Project4 = TRUE
Project5 = TRUE
Project6 = TRUE
Project7 = TRUE
Project8 = TRUE
Project9 = TRUE
Project10 = TRUE
Project11 = TRUE
Project12 = TRUE
Project13 = TRUE
Project14 = TRUE
Project15 = TRUE
Project16 = TRUE
Project17 = TRUE
Project18 = TRUE
Project19 = TRUE
Project20 = TRUE
Project21 = TRUE
Project22 = TRUE
Project23 = TRUE
Project24 = TRUE
Project25 = TRUE
Project26 = TRUE
Project27 = TRUE
Project28 = TRUE
Project29 = TRUE
Project30 = TRUE
Project31 = TRUE
Project32 = TRUE
Project33 = TRUE
Project34 = TRUE
Project35 = TRUE
Project36 = TRUE
Project37 = TRUE
Project38 = TRUE
Project39 = TRUE
Project40 = TRUE
Project41 = TRUE
Project42 = TRUE
Project43 = TRUE
Project44 = TRUE
Project45 = TRUE
Project46 = TRUE
Project47 = TRUE
Project48 = TRUE
Project49 = TRUE
Project50 = TRUE
Project51 = TRUE
Project52 = TRUE
Project53 = TRUE
Project54 = TRUE
Project55 = TRUE
Project56 = TRUE
Project57 = TRUE
Project58 = TRUE
Project59 = TRUE
Project60 = TRUE
Project61 = TRUE
Project62 = TRUE
Project63 = TRUE
Project64 = TRUE
Project65 = TRUE
Project66 = TRUE
Project67 = TRUE
Project68 = TRUE
Project69 = TRUE
Project70 = TRUE
Project71 = FALSE
Project72 = FALSE
Project73 = FALSE
Project74 = FALSE
Project75 = FALSE
Project76 = FALSE
Project77 = TRUE
Project78 = TRUE
Project79 = TRUE
Project80 = TRUE
Project81 = TRUE
Project82 = TRUE
Project83 = TRUE
Project84 = TRUE
Project85 = TRUE
Project86 = TRUE
Project87 = TRUE
Project88 = TRUE
Project89 = TRUE
Project90 = TRUE
Project91 = TRUE
Project92 = TRUE
Project93 = TRUE
Project94 = TRUE
Project95 = TRUE
Project96 = TRUE
Project97 = TRUE
Project98 = TRUE
Project99 = TRUE
Project100 = TRUE
Project101 = TRUE
Project102 = TRUE
Project103 = TRUE
Project104 = TRUE
Project105 = TRUE
Project106 = TRUE
Project107 = TRUE
Project108 = TRUE
Project109 = TRUE
Project110 = TRUE
Project111 = TRUE
Project112 = TRUE
Project113 = TRUE
Project114 = TRUE
Project115 = TRUE
Project116 = TRUE
Project117 = TRUE
Project118 = TRUE
Project119 = TRUE
Project120 = TRUE
Project121 = TRUE
Project122 = TRUE
Project123 = TRUE
Project124 = TRUE
Project125 = TRUE
Project126 = TRUE
Project127 = TRUE
Project128 = TRUE
Project129 = TRUE
Project130 = TRUE
Project131 = TRUE
Project132 = TRUE
Project133 = TRUE
Project134 = TRUE
Project135 = TRUE
Project136 = TRUE
Project137 = TRUE
Project138 = TRUE
Project139 = TRUE
Project140 = TRUE
Project141 = TRUE
Project142 = TRUE
Project143 = TRUE
Project144 = TRUE
Project145 = TRUE
Project146 = TRUE
Project147 = TRUE
Project148 = TRUE
Project149 = TRUE
Project150 = TRUE
Project151 = TRUE
Project152 = TRUE
Project153 = TRUE
Project154 = TRUE
Project155 = TRUE
Project156 = TRUE
Project157 = TRUE
Project158 = TRUE
Project159 = TRUE
Project160 = TRUE
Project161 = TRUE
Project162 = TRUE
Project163 = TRUE
Project164 = TRUE
Project165 = TRUE
Project166 = TRUE
Project167 = TRUE
Project168 = TRUE
Project169 = TRUE
Project170 = TRUE
Project171 = TRUE
Project172 = TRUE
Project173 = TRUE
Project174 = TRUE
Project175 = TRUE
Project176 = TRUE
Project177 = TRUE
Project178 = TRUE
Project179 = TRUE
Project180 = TRUE
Project181 = TRUE
Project182 = TRUE
Project183 = TRUE
Project184 = TRUE
Project185 = TRUE
Project186 = TRUE
Project187 = TRUE
Project188 = TRUE
Project189 = TRUE
Project190 = TRUE
Project191 = TRUE
Project192 = TRUE
Project193 = TRUE
Project194 = TRUE
Project195 = TRUE
Project196 = TRUE
Project197 = TRUE
Project198 = TRUE
Project199 = TRUE
Project200 = TRUE
Project201 = TRUE
Project202 = TRUE
Project203 = TRUE
Project204 = TRUE
Project205 = TRUE
Project206 = TRUE
Project207 = TRUE
Project208 = TRUE
Project209 = TRUE

[Project1]
项目名1 = "弹出提示框"
描述1 = "请确认ATE设置为3P3W"
输入参数1 = "提示内容^请确认ATE设置为3P3W"
最小值1 = "0.00"
最大值1 = "0.00"
单位1 = ""
保存1 = "√"
执行方式1 = "运行"
变量1 = ""
输出参数1 = ""
VI路径1 = "其他"
设置标志1 = ""
跳转标志1 = ""
跳转条件1 = "继续测试"
项目名2 = "弹出提示框"
描述2 = "请插带组串的12路"
输入参数2 = "提示内容^请插带组串的12路"
最小值2 = "0.00"
最大值2 = "0.00"
单位2 = ""
保存2 = "√"
执行方式2 = "运行"
变量2 = ""
输出参数2 = ""
VI路径2 = "其他"
设置标志2 = ""
跳转标志2 = ""
跳转条件2 = "继续测试"
项目名3 = "控制PLC继电器"
描述3 = "断开所有继电器"
输入参数3 = "地址^1+断开=0，闭合=1^0+接口号^%设备2+通道号（1-8）,FF为全部控制^FF"
最小值3 = "0.00"
最大值3 = "0.00"
单位3 = ""
保存3 = ""
执行方式3 = "运行"
变量3 = ""
输出参数3 = ""
VI路径3 = "PLC"
设置标志3 = ""
跳转标志3 = ""
跳转条件3 = "继续测试"

[Project2]
项目名1 = "控制PLC继电器"
描述1 = "控制PLC三相三线"
输入参数1 = "地址^1+断开=0，闭合=1^1+接口号^%设备6+通道号（1-8）,FF为全部控制^8"
最小值1 = "0.00"
最大值1 = "0.00"
单位1 = ""
保存1 = ""
执行方式1 = "运行"
变量1 = ""
输出参数1 = ""
VI路径1 = "PLC"
设置标志1 = ""
跳转标志1 = ""
跳转条件1 = "继续测试"

[Project3]
项目名1 = "自定义协议发送"
描述1 = "3390-SYSTEM"
输入参数1 = "16进制=0，字符=1^1+不检查应答=0，检查应答=1^0+接口号^%设备4+校验^+协议^:DISP:KEY SYSTEM"
最小值1 = "0.00"
最大值1 = "0.00"
单位1 = ""
保存1 = ""
执行方式1 = "运行"
变量1 = ""
输出参数1 = "应答数据^"
VI路径1 = "串口控制"
设置标志1 = ""
跳转标志1 = ""
跳转条件1 = "继续测试"
项目名2 = "自定义协议发送"
描述2 = "3390-3P3W"
输入参数2 = "16进制=0，字符=1^1+不检查应答=0，检查应答=1^0+接口号^%设备4+校验^+协议^:MODE TYPE7"
最小值2 = "0.00"
最大值2 = "0.00"
单位2 = ""
保存2 = ""
执行方式2 = "运行"
变量2 = ""
输出参数2 = "应答数据^"
VI路径2 = "串口控制"
设置标志2 = ""
跳转标志2 = ""
跳转条件2 = "继续测试"
项目名3 = "自定义协议发送"
描述3 = "3390-ZERO OFF"
输入参数3 = "16进制=0，字符=1^1+不检查应答=0，检查应答=1^0+接口号^%设备4+校验^+协议^:ZERO OFF"
最小值3 = "0.00"
最大值3 = "0.00"
单位3 = ""
保存3 = ""
执行方式3 = "运行"
变量3 = ""
输出参数3 = "应答数据^"
VI路径3 = "串口控制"
设置标志3 = ""
跳转标志3 = ""
跳转条件3 = "继续测试"
项目名4 = "自定义协议发送"
描述4 = "3390-MEAS"
输入参数4 = "16进制=0，字符=1^1+不检查应答=0，检查应答=1^0+接口号^%设备4+校验^+协议^:DISP:KEY MEAS"
最小值4 = "0.00"
最大值4 = "0.00"
单位4 = ""
保存4 = ""
执行方式4 = "运行"
变量4 = ""
输出参数4 = "应答数据^"
VI路径4 = "串口控制"
设置标志4 = ""
跳转标志4 = ""
跳转条件4 = "继续测试"
项目名5 = "自定义协议发送"
描述5 = "3390-CLS"
输入参数5 = "16进制=0，字符=1^1+不检查应答=0，检查应答=1^0+接口号^%设备4+校验^+协议^*CLS"
最小值5 = "0.00"
最大值5 = "0.00"
单位5 = ""
保存5 = ""
执行方式5 = "运行"
变量5 = ""
输出参数5 = "应答数据^"
VI路径5 = "串口控制"
设置标志5 = ""
跳转标志5 = ""
跳转条件5 = "继续测试"
项目名6 = "自定义协议发送"
描述6 = "3390-HOLD OFF"
输入参数6 = "16进制=0，字符=1^1+不检查应答=0，检查应答=1^0+接口号^%设备4+校验^+协议^:HOLD OFF"
最小值6 = "0.00"
最大值6 = "0.00"
单位6 = ""
保存6 = ""
执行方式6 = "运行"
变量6 = ""
输出参数6 = "应答数据^"
VI路径6 = "串口控制"
设置标志6 = ""
跳转标志6 = ""
跳转条件6 = "继续测试"
项目名7 = "自定义协议发送"
描述7 = "3390-INTEG:RES"
输入参数7 = "16进制=0，字符=1^1+不检查应答=0，检查应答=1^0+接口号^%设备4+校验^+协议^:INTEG:RES"
最小值7 = "0.00"
最大值7 = "0.00"
单位7 = ""
保存7 = ""
执行方式7 = "运行"
变量7 = ""
输出参数7 = "应答数据^"
VI路径7 = "串口控制"
设置标志7 = ""
跳转标志7 = ""
跳转条件7 = "继续测试"
项目名8 = "自定义协议发送"
描述8 = "3390-VOLT1:RANG 1500"
输入参数8 = "16进制=0，字符=1^1+不检查应答=0，检查应答=1^0+接口号^%设备4+校验^+协议^:VOLT1:RANG 1500"
最小值8 = "0.00"
最大值8 = "0.00"
单位8 = ""
保存8 = ""
执行方式8 = "运行"
变量8 = ""
输出参数8 = "应答数据^"
VI路径8 = "串口控制"
设置标志8 = ""
跳转标志8 = ""
跳转条件8 = "继续测试"
项目名9 = "自定义协议发送"
描述9 = "3390-VOLT4:RANG 1500"
输入参数9 = "16进制=0，字符=1^1+不检查应答=0，检查应答=1^0+接口号^%设备4+校验^+协议^:VOLT4:RANG 1500"
最小值9 = "0.00"
最大值9 = "0.00"
单位9 = ""
保存9 = ""
执行方式9 = "运行"
变量9 = ""
输出参数9 = "应答数据^"
VI路径9 = "串口控制"
设置标志9 = ""
跳转标志9 = ""
跳转条件9 = "继续测试"

[Project4]
项目名1 = "控制PLC继电器"
描述1 = "闭合950V辅助电"
输入参数1 = "地址^1+断开=0，闭合=1^1+接口号^%设备5+通道号（1-8）,FF为全部控制^5"
最小值1 = "0.00"
最大值1 = "0.00"
单位1 = ""
保存1 = ""
执行方式1 = "运行"
变量1 = ""
输出参数1 = ""
VI路径1 = "PLC"
设置标志1 = ""
跳转标志1 = ""
跳转条件1 = "继续测试"
项目名2 = "延时"
描述2 = "延时1.5min"
输入参数2 = "等待时间(s)^90"
最小值2 = "0.00"
最大值2 = "0.00"
单位2 = ""
保存2 = ""
执行方式2 = "运行"
变量2 = ""
输出参数2 = ""
VI路径2 = "其他"
设置标志2 = ""
跳转标志2 = ""
跳转条件2 = "继续测试"

[Project5]
项目名1 = "读取串口数据"
描述1 = "确认机器状态--报警"
输入参数1 = "16进制=0，字符=1^0+超时（s）^10+读取长度^1+读取开始位数^3+发送协议^01 04 00 2F 00 01 00 03+接口号^%设备7+校验^0+最大值^128+最小值^128"
最小值1 = "128.00"
最大值1 = "128.00"
单位1 = ""
保存1 = "√"
执行方式1 = "判断"
变量1 = ""
输出参数1 = "返回数据^"
VI路径1 = "串口控制"
设置标志1 = ""
跳转标志1 = ""
跳转条件1 = "继续测试"

[Project6]
项目名1 = "读取串口数据"
描述1 = "设法规NB32004HV"
输入参数1 = "16进制=0，字符=1^0+超时（s）^3+读取长度^2+读取开始位数^4+发送协议^01 06 29 0C 00 24+接口号^%设备7+校验^2+最大值^+最小值^"
最小值1 = "0.00"
最大值1 = "0.00"
单位1 = ""
保存1 = "√"
执行方式1 = "运行"
变量1 = ""
输出参数1 = "返回数据^"
VI路径1 = "串口控制"
设置标志1 = ""
跳转标志1 = ""
跳转条件1 = "继续测试"
项目名2 = "读取串口数据"
描述2 = "设置为连接中线"
输入参数2 = "16进制=0，字符=1^0+超时（s）^3+读取长度^2+读取开始位数^4+发送协议^01 06 29 0D A5 A5 AB 7E+接口号^%设备7+校验^0+最大值^+最小值^"
最小值2 = "42405.00"
最大值2 = "42405.00"
单位2 = ""
保存2 = "√"
执行方式2 = "运行"
变量2 = ""
输出参数2 = "返回数据^"
VI路径2 = "串口控制"
设置标志2 = ""
跳转标志2 = ""
跳转条件2 = "继续测试"
项目名3 = "延时"
描述3 = "延时"
输入参数3 = "等待时间(s)^3"
最小值3 = "0.00"
最大值3 = "0.00"
单位3 = ""
保存3 = ""
执行方式3 = "运行"
变量3 = ""
输出参数3 = ""
VI路径3 = "其他"
设置标志3 = ""
跳转标志3 = ""
跳转条件3 = "继续测试"
项目名4 = "读取串口数据"
描述4 = "设置PV连接方式为并联"
输入参数4 = "16进制=0，字符=1^0+超时（s）^3+读取长度^2+读取开始位数^4+发送协议^01 06 29 0E A5 A5 5B 7E+接口号^%设备7+校验^0+最大值^+最小值^"
最小值4 = "42405.00"
最大值4 = "42405.00"
单位4 = ""
保存4 = "√"
执行方式4 = "运行"
变量4 = ""
输出参数4 = "返回数据^"
VI路径4 = "串口控制"
设置标志4 = ""
跳转标志4 = ""
跳转条件4 = "继续测试"
项目名5 = "延时"
描述5 = "等待1S"
输入参数5 = "等待时间(s)^1"
最小值5 = "0.00"
最大值5 = "0.00"
单位5 = ""
保存5 = ""
执行方式5 = "运行"
变量5 = ""
输出参数5 = ""
VI路径5 = "其他"
设置标志5 = ""
跳转标志5 = ""
跳转条件5 = "继续测试"
项目名6 = "读取串口数据"
描述6 = "485功能确认"
输入参数6 = "16进制=0，字符=1^0+超时（s）^3+读取长度^1+读取开始位数^3+发送协议^01 04 00 2F 00 01 00 03+接口号^%设备7+校验^0+最大值^+最小值^"
最小值6 = "128.00"
最大值6 = "128.00"
单位6 = ""
保存6 = "√"
执行方式6 = "判断"
变量6 = ""
输出参数6 = "返回数据^"
VI路径6 = "串口控制"
设置标志6 = ""
跳转标志6 = ""
跳转条件6 = "继续测试"
项目名7 = "读取串口数据"
描述7 = "恢复出厂设置"
输入参数7 = "16进制=0，字符=1^0+超时（s）^3+读取长度^2+读取开始位数^4+发送协议^01 06 27 02 5A AA 98 61+接口号^%设备7+校验^0+最大值^+最小值^"
最小值7 = "23210.00"
最大值7 = "23210.00"
单位7 = ""
保存7 = "√"
执行方式7 = "判断"
变量7 = ""
输出参数7 = "返回数据^"
VI路径7 = "串口控制"
设置标志7 = ""
跳转标志7 = ""
跳转条件7 = "继续测试"
项目名8 = "读取串口数据"
描述8 = "写eeprom使能"
输入参数8 = "16进制=0，字符=1^0+超时（s）^3+读取长度^2+读取开始位数^4+发送协议^01 06 2A 0A 55 55 5E BF+接口号^%设备7+校验^0+最大值^+最小值^"
最小值8 = "21845.00"
最大值8 = "21845.00"
单位8 = ""
保存8 = "√"
执行方式8 = "运行"
变量8 = ""
输出参数8 = "返回数据^"
VI路径8 = "串口控制"
设置标志8 = ""
跳转标志8 = ""
跳转条件8 = "继续测试"
项目名9 = "延时"
描述9 = "延时"
输入参数9 = "等待时间(s)^1"
最小值9 = "0.00"
最大值9 = "0.00"
单位9 = ""
保存9 = ""
执行方式9 = "运行"
变量9 = ""
输出参数9 = ""
VI路径9 = "其他"
设置标志9 = ""
跳转标志9 = ""
跳转条件9 = "继续测试"

[Project7]
项目名1 = "Offset校准"
描述1 = "R相电流Offset校准"
输入参数1 = "测量数据读取次数^3+读位数^3 4+读协议^01 04 86 11 00 01 48 87+接口号^%设备7+写Offset位数^4 5+写Offset协议^01 06 28 07 00 00"
最小值1 = "9800.00"
最大值1 = "10200.00"
单位1 = ""
保存1 = "√"
执行方式1 = "判断"
变量1 = "XieYi"
输出参数1 = "Offset^+协议字符^XieYi"
VI路径1 = "逆变器"
设置标志1 = ""
跳转标志1 = ""
跳转条件1 = "继续测试"
项目名2 = "延时"
描述2 = "延时"
输入参数2 = "等待时间(s)^1"
最小值2 = "0.00"
最大值2 = "0.00"
单位2 = ""
保存2 = ""
执行方式2 = "运行"
变量2 = ""
输出参数2 = ""
VI路径2 = "其他"
设置标志2 = ""
跳转标志2 = ""
跳转条件2 = "继续测试"
项目名3 = "自定义协议发送"
描述3 = "下发校准协议"
输入参数3 = "16进制=0，字符=1^0+不检查应答=0，检查应答=1^0+接口号^%设备7+校验^2+协议^%XieYi"
最小值3 = "0.00"
最大值3 = "0.00"
单位3 = ""
保存3 = ""
执行方式3 = "运行"
变量3 = ""
输出参数3 = "应答数据^"
VI路径3 = "串口控制"
设置标志3 = ""
跳转标志3 = ""
跳转条件3 = "继续测试"
项目名4 = "延时"
描述4 = "延时"
输入参数4 = "等待时间(s)^1"
最小值4 = "0.00"
最大值4 = "0.00"
单位4 = ""
保存4 = ""
执行方式4 = "运行"
变量4 = ""
输出参数4 = ""
VI路径4 = "其他"
设置标志4 = ""
跳转标志4 = ""
跳转条件4 = "继续测试"

[Project8]
项目名1 = "Offset校准"
描述1 = "S相电流Offset校准"
输入参数1 = "测量数据读取次数^3+读位数^3 4+读协议^01 04 86 12 00 01 B8 87+接口号^%设备7+写Offset位数^4 5+写Offset协议^01 06 28 09 00 00"
最小值1 = "9800.00"
最大值1 = "10200.00"
单位1 = ""
保存1 = "√"
执行方式1 = "判断"
变量1 = "XieYi"
输出参数1 = "Offset^+协议字符^XieYi"
VI路径1 = "逆变器"
设置标志1 = ""
跳转标志1 = ""
跳转条件1 = "继续测试"
项目名2 = "延时"
描述2 = "延时"
输入参数2 = "等待时间(s)^1"
最小值2 = "0.00"
最大值2 = "0.00"
单位2 = ""
保存2 = ""
执行方式2 = "运行"
变量2 = ""
输出参数2 = ""
VI路径2 = "其他"
设置标志2 = ""
跳转标志2 = ""
跳转条件2 = "继续测试"
项目名3 = "自定义协议发送"
描述3 = "下发校准协议"
输入参数3 = "16进制=0，字符=1^0+不检查应答=0，检查应答=1^0+接口号^%设备7+校验^2+协议^%XieYi"
最小值3 = "0.00"
最大值3 = "0.00"
单位3 = ""
保存3 = ""
执行方式3 = "运行"
变量3 = ""
输出参数3 = "应答数据^"
VI路径3 = "串口控制"
设置标志3 = ""
跳转标志3 = ""
跳转条件3 = "继续测试"
项目名4 = "延时"
描述4 = "延时"
输入参数4 = "等待时间(s)^1"
最小值4 = "0.00"
最大值4 = "0.00"
单位4 = ""
保存4 = ""
执行方式4 = "运行"
变量4 = ""
输出参数4 = ""
VI路径4 = "其他"
设置标志4 = ""
跳转标志4 = ""
跳转条件4 = "继续测试"

[Project9]
项目名1 = "Offset校准"
描述1 = "T相电流Offset校准"
输入参数1 = "测量数据读取次数^3+读位数^3 4+读协议^01 04 86 13 00 01 E9 47+接口号^%设备7+写Offset位数^4 5+写Offset协议^01 06 28 0B 00 00"
最小值1 = "9800.00"
最大值1 = "10200.00"
单位1 = ""
保存1 = "√"
执行方式1 = "判断"
变量1 = "XieYi"
输出参数1 = "Offset^+协议字符^XieYi"
VI路径1 = "逆变器"
设置标志1 = ""
跳转标志1 = ""
跳转条件1 = "继续测试"
项目名2 = "延时"
描述2 = "延时"
输入参数2 = "等待时间(s)^1"
最小值2 = "0.00"
最大值2 = "0.00"
单位2 = ""
保存2 = ""
执行方式2 = "运行"
变量2 = ""
输出参数2 = ""
VI路径2 = "其他"
设置标志2 = ""
跳转标志2 = ""
跳转条件2 = "继续测试"
项目名3 = "自定义协议发送"
描述3 = "下发校准协议"
输入参数3 = "16进制=0，字符=1^0+不检查应答=0，检查应答=1^0+接口号^%设备7+校验^2+协议^%XieYi"
最小值3 = "0.00"
最大值3 = "0.00"
单位3 = ""
保存3 = ""
执行方式3 = "运行"
变量3 = ""
输出参数3 = "应答数据^"
VI路径3 = "串口控制"
设置标志3 = ""
跳转标志3 = ""
跳转条件3 = "继续测试"
项目名4 = "延时"
描述4 = "延时"
输入参数4 = "等待时间(s)^1"
最小值4 = "0.00"
最大值4 = "0.00"
单位4 = ""
保存4 = ""
执行方式4 = "运行"
变量4 = ""
输出参数4 = ""
VI路径4 = "其他"
设置标志4 = ""
跳转标志4 = ""
跳转条件4 = "继续测试"

[Project10]
项目名1 = "Offset校准"
描述1 = "R电网电压Offset校准"
输入参数1 = "测量数据读取次数^3+读位数^3 4+读协议^01 04 86 0B 00 01 69 40+接口号^%设备7+写Offset位数^4 5+写Offset协议^01 06 28 0D 00 00"
最小值1 = "9800.00"
最大值1 = "10200.00"
单位1 = ""
保存1 = "√"
执行方式1 = "判断"
变量1 = "XieYi"
输出参数1 = "Offset^+协议字符^XieYi"
VI路径1 = "逆变器"
设置标志1 = ""
跳转标志1 = ""
跳转条件1 = "继续测试"
项目名2 = "延时"
描述2 = "延时"
输入参数2 = "等待时间(s)^1"
最小值2 = "0.00"
最大值2 = "0.00"
单位2 = ""
保存2 = ""
执行方式2 = "运行"
变量2 = ""
输出参数2 = ""
VI路径2 = "其他"
设置标志2 = ""
跳转标志2 = ""
跳转条件2 = "继续测试"
项目名3 = "自定义协议发送"
描述3 = "下发校准协议"
输入参数3 = "16进制=0，字符=1^0+不检查应答=0，检查应答=1^0+接口号^%设备7+校验^2+协议^%XieYi"
最小值3 = "0.00"
最大值3 = "0.00"
单位3 = ""
保存3 = ""
执行方式3 = "运行"
变量3 = ""
输出参数3 = "应答数据^"
VI路径3 = "串口控制"
设置标志3 = ""
跳转标志3 = ""
跳转条件3 = "继续测试"
项目名4 = "延时"
描述4 = "延时"
输入参数4 = "等待时间(s)^1"
最小值4 = "0.00"
最大值4 = "0.00"
单位4 = ""
保存4 = ""
执行方式4 = "运行"
变量4 = ""
输出参数4 = ""
VI路径4 = "其他"
设置标志4 = ""
跳转标志4 = ""
跳转条件4 = "继续测试"

[Project11]
项目名1 = "Offset校准"
描述1 = "S电网电压Offset校准"
输入参数1 = "测量数据读取次数^3+读位数^3 4+读协议^01 04 86 0C 00 01 D8 81+接口号^%设备7+写Offset位数^4 5+写Offset协议^01 06 28 0F 00 00"
最小值1 = "9800.00"
最大值1 = "10200.00"
单位1 = ""
保存1 = "√"
执行方式1 = "判断"
变量1 = "XieYi"
输出参数1 = "Offset^+协议字符^XieYi"
VI路径1 = "逆变器"
设置标志1 = ""
跳转标志1 = ""
跳转条件1 = "继续测试"
项目名2 = "延时"
描述2 = "延时"
输入参数2 = "等待时间(s)^1"
最小值2 = "0.00"
最大值2 = "0.00"
单位2 = ""
保存2 = ""
执行方式2 = "运行"
变量2 = ""
输出参数2 = ""
VI路径2 = "其他"
设置标志2 = ""
跳转标志2 = ""
跳转条件2 = "继续测试"
项目名3 = "自定义协议发送"
描述3 = "下发校准协议"
输入参数3 = "16进制=0，字符=1^0+不检查应答=0，检查应答=1^0+接口号^%设备7+校验^2+协议^%XieYi"
最小值3 = "0.00"
最大值3 = "0.00"
单位3 = ""
保存3 = ""
执行方式3 = "运行"
变量3 = ""
输出参数3 = "应答数据^"
VI路径3 = "串口控制"
设置标志3 = ""
跳转标志3 = ""
跳转条件3 = "继续测试"
项目名4 = "延时"
描述4 = "延时"
输入参数4 = "等待时间(s)^1"
最小值4 = "0.00"
最大值4 = "0.00"
单位4 = ""
保存4 = ""
执行方式4 = "运行"
变量4 = ""
输出参数4 = ""
VI路径4 = "其他"
设置标志4 = ""
跳转标志4 = ""
跳转条件4 = "继续测试"

[Project12]
项目名1 = "Offset校准"
描述1 = "T电网电压Offset校准"
输入参数1 = "测量数据读取次数^3+读位数^3 4+读协议^01 04 86 0D 00 01 89 41+接口号^%设备7+写Offset位数^4 5+写Offset协议^01 06 28 11 00 00"
最小值1 = "9800.00"
最大值1 = "10200.00"
单位1 = ""
保存1 = "√"
执行方式1 = "判断"
变量1 = "XieYi"
输出参数1 = "Offset^+协议字符^XieYi"
VI路径1 = "逆变器"
设置标志1 = ""
跳转标志1 = ""
跳转条件1 = "继续测试"
项目名2 = "延时"
描述2 = "延时"
输入参数2 = "等待时间(s)^1"
最小值2 = "0.00"
最大值2 = "0.00"
单位2 = ""
保存2 = ""
执行方式2 = "运行"
变量2 = ""
输出参数2 = ""
VI路径2 = "其他"
设置标志2 = ""
跳转标志2 = ""
跳转条件2 = "继续测试"
项目名3 = "自定义协议发送"
描述3 = "下发校准协议"
输入参数3 = "16进制=0，字符=1^0+不检查应答=0，检查应答=1^0+接口号^%设备7+校验^2+协议^%XieYi"
最小值3 = "0.00"
最大值3 = "0.00"
单位3 = ""
保存3 = ""
执行方式3 = "运行"
变量3 = ""
输出参数3 = "应答数据^"
VI路径3 = "串口控制"
设置标志3 = ""
跳转标志3 = ""
跳转条件3 = "继续测试"
项目名4 = "延时"
描述4 = "延时"
输入参数4 = "等待时间(s)^1"
最小值4 = "0.00"
最大值4 = "0.00"
单位4 = ""
保存4 = ""
执行方式4 = "运行"
变量4 = ""
输出参数4 = ""
VI路径4 = "其他"
设置标志4 = ""
跳转标志4 = ""
跳转条件4 = "继续测试"

[Project13]
项目名1 = "Offset校准"
描述1 = "R逆变电压Offset校准"
输入参数1 = "测量数据读取次数^3+读位数^3 4+读协议^01 04 86 0E 00 01 79 41+接口号^%设备7+写Offset位数^4 5+写Offset协议^01 06 28 13 00 00"
最小值1 = "9800.00"
最大值1 = "10200.00"
单位1 = ""
保存1 = "√"
执行方式1 = "判断"
变量1 = "XieYi"
输出参数1 = "Offset^+协议字符^XieYi"
VI路径1 = "逆变器"
设置标志1 = ""
跳转标志1 = ""
跳转条件1 = "继续测试"
项目名2 = "延时"
描述2 = "延时"
输入参数2 = "等待时间(s)^1"
最小值2 = "0.00"
最大值2 = "0.00"
单位2 = ""
保存2 = ""
执行方式2 = "运行"
变量2 = ""
输出参数2 = ""
VI路径2 = "其他"
设置标志2 = ""
跳转标志2 = ""
跳转条件2 = "继续测试"
项目名3 = "自定义协议发送"
描述3 = "下发校准协议"
输入参数3 = "16进制=0，字符=1^0+不检查应答=0，检查应答=1^0+接口号^%设备7+校验^2+协议^%XieYi"
最小值3 = "0.00"
最大值3 = "0.00"
单位3 = ""
保存3 = ""
执行方式3 = "运行"
变量3 = ""
输出参数3 = "应答数据^"
VI路径3 = "串口控制"
设置标志3 = ""
跳转标志3 = ""
跳转条件3 = "继续测试"
项目名4 = "延时"
描述4 = "延时"
输入参数4 = "等待时间(s)^1"
最小值4 = "0.00"
最大值4 = "0.00"
单位4 = ""
保存4 = ""
执行方式4 = "运行"
变量4 = ""
输出参数4 = ""
VI路径4 = "其他"
设置标志4 = ""
跳转标志4 = ""
跳转条件4 = "继续测试"

[Project14]
项目名1 = "Offset校准"
描述1 = "S逆变电压Offset校准"
输入参数1 = "测量数据读取次数^3+读位数^3 4+读协议^01 04 86 0F 00 01 28 81+接口号^%设备7+写Offset位数^4 5+写Offset协议^01 06 28 15 00 00"
最小值1 = "9800.00"
最大值1 = "10200.00"
单位1 = ""
保存1 = "√"
执行方式1 = "判断"
变量1 = "XieYi"
输出参数1 = "Offset^+协议字符^XieYi"
VI路径1 = "逆变器"
设置标志1 = ""
跳转标志1 = ""
跳转条件1 = "继续测试"
项目名2 = "延时"
描述2 = "延时"
输入参数2 = "等待时间(s)^1"
最小值2 = "0.00"
最大值2 = "0.00"
单位2 = ""
保存2 = ""
执行方式2 = "运行"
变量2 = ""
输出参数2 = ""
VI路径2 = "其他"
设置标志2 = ""
跳转标志2 = ""
跳转条件2 = "继续测试"
项目名3 = "自定义协议发送"
描述3 = "下发校准协议"
输入参数3 = "16进制=0，字符=1^0+不检查应答=0，检查应答=1^0+接口号^%设备7+校验^2+协议^%XieYi"
最小值3 = "0.00"
最大值3 = "0.00"
单位3 = ""
保存3 = ""
执行方式3 = "运行"
变量3 = ""
输出参数3 = "应答数据^"
VI路径3 = "串口控制"
设置标志3 = ""
跳转标志3 = ""
跳转条件3 = "继续测试"
项目名4 = "延时"
描述4 = "延时"
输入参数4 = "等待时间(s)^1"
最小值4 = "0.00"
最大值4 = "0.00"
单位4 = ""
保存4 = ""
执行方式4 = "运行"
变量4 = ""
输出参数4 = ""
VI路径4 = "其他"
设置标志4 = ""
跳转标志4 = ""
跳转条件4 = "继续测试"

[Project15]
项目名1 = "Offset校准"
描述1 = "T逆变电压Offset校准"
输入参数1 = "测量数据读取次数^3+读位数^3 4+读协议^01 04 86 10 00 01 19 47+接口号^%设备7+写Offset位数^4 5+写Offset协议^01 06 28 17 00 00"
最小值1 = "9800.00"
最大值1 = "10200.00"
单位1 = ""
保存1 = "√"
执行方式1 = "判断"
变量1 = "XieYi"
输出参数1 = "Offset^+协议字符^XieYi"
VI路径1 = "逆变器"
设置标志1 = ""
跳转标志1 = ""
跳转条件1 = "继续测试"
项目名2 = "延时"
描述2 = "延时"
输入参数2 = "等待时间(s)^1"
最小值2 = "0.00"
最大值2 = "0.00"
单位2 = ""
保存2 = ""
执行方式2 = "运行"
变量2 = ""
输出参数2 = ""
VI路径2 = "其他"
设置标志2 = ""
跳转标志2 = ""
跳转条件2 = "继续测试"
项目名3 = "自定义协议发送"
描述3 = "下发校准协议"
输入参数3 = "16进制=0，字符=1^0+不检查应答=0，检查应答=1^0+接口号^%设备7+校验^2+协议^%XieYi"
最小值3 = "0.00"
最大值3 = "0.00"
单位3 = ""
保存3 = ""
执行方式3 = "运行"
变量3 = ""
输出参数3 = "应答数据^"
VI路径3 = "串口控制"
设置标志3 = ""
跳转标志3 = ""
跳转条件3 = "继续测试"
项目名4 = "延时"
描述4 = "延时"
输入参数4 = "等待时间(s)^1"
最小值4 = "0.00"
最大值4 = "0.00"
单位4 = ""
保存4 = ""
执行方式4 = "运行"
变量4 = ""
输出参数4 = ""
VI路径4 = "其他"
设置标志4 = ""
跳转标志4 = ""
跳转条件4 = "继续测试"

[Project16]
项目名1 = "Offset校准"
描述1 = "MPPT 1Offset校准"
输入参数1 = "测量数据读取次数^3+读位数^3 4+读协议^01 04 86 29 00 01 C9 4A+接口号^%设备7+写Offset位数^4 5+写Offset协议^01 06 28 48 00 00"
最小值1 = "1000.00"
最大值1 = "1500.00"
单位1 = ""
保存1 = "√"
执行方式1 = "判断"
变量1 = "XieYi"
输出参数1 = "Offset^+协议字符^XieYi"
VI路径1 = "逆变器"
设置标志1 = ""
跳转标志1 = ""
跳转条件1 = "继续测试"
项目名2 = "延时"
描述2 = "延时"
输入参数2 = "等待时间(s)^1"
最小值2 = "0.00"
最大值2 = "0.00"
单位2 = ""
保存2 = ""
执行方式2 = "运行"
变量2 = ""
输出参数2 = ""
VI路径2 = "其他"
设置标志2 = ""
跳转标志2 = ""
跳转条件2 = "继续测试"
项目名3 = "自定义协议发送"
描述3 = "下发校准协议"
输入参数3 = "16进制=0，字符=1^0+不检查应答=0，检查应答=1^0+接口号^%设备7+校验^2+协议^%XieYi"
最小值3 = "0.00"
最大值3 = "0.00"
单位3 = ""
保存3 = ""
执行方式3 = "运行"
变量3 = ""
输出参数3 = "应答数据^"
VI路径3 = "串口控制"
设置标志3 = ""
跳转标志3 = ""
跳转条件3 = "继续测试"
项目名4 = "延时"
描述4 = "延时"
输入参数4 = "等待时间(s)^1"
最小值4 = "0.00"
最大值4 = "0.00"
单位4 = ""
保存4 = ""
执行方式4 = "运行"
变量4 = ""
输出参数4 = ""
VI路径4 = "其他"
设置标志4 = ""
跳转标志4 = ""
跳转条件4 = "继续测试"

[Project17]
项目名1 = "Offset校准"
描述1 = "MPPT 2 电流Offset校准"
输入参数1 = "测量数据读取次数^3+读位数^3 4+读协议^01 04 86 2A 00 01 39 4A+接口号^%设备7+写Offset位数^4 5+写Offset协议^01 06 28 4A 00 00"
最小值1 = "1000.00"
最大值1 = "1500.00"
单位1 = ""
保存1 = "√"
执行方式1 = "判断"
变量1 = "XieYi"
输出参数1 = "Offset^+协议字符^XieYi"
VI路径1 = "逆变器"
设置标志1 = ""
跳转标志1 = ""
跳转条件1 = "继续测试"
项目名2 = "延时"
描述2 = "延时"
输入参数2 = "等待时间(s)^1"
最小值2 = "0.00"
最大值2 = "0.00"
单位2 = ""
保存2 = ""
执行方式2 = "运行"
变量2 = ""
输出参数2 = ""
VI路径2 = "其他"
设置标志2 = ""
跳转标志2 = ""
跳转条件2 = "继续测试"
项目名3 = "自定义协议发送"
描述3 = "下发校准协议"
输入参数3 = "16进制=0，字符=1^0+不检查应答=0，检查应答=1^0+接口号^%设备7+校验^2+协议^%XieYi"
最小值3 = "0.00"
最大值3 = "0.00"
单位3 = ""
保存3 = ""
执行方式3 = "运行"
变量3 = ""
输出参数3 = "应答数据^"
VI路径3 = "串口控制"
设置标志3 = ""
跳转标志3 = ""
跳转条件3 = "继续测试"
项目名4 = "延时"
描述4 = "延时"
输入参数4 = "等待时间(s)^1"
最小值4 = "0.00"
最大值4 = "0.00"
单位4 = ""
保存4 = ""
执行方式4 = "运行"
变量4 = ""
输出参数4 = ""
VI路径4 = "其他"
设置标志4 = ""
跳转标志4 = ""
跳转条件4 = "继续测试"

[Project18]
项目名1 = "Offset校准"
描述1 = "MPPT 3 电流Offset校准"
输入参数1 = "测量数据读取次数^3+读位数^3 4+读协议^01 04 86 2B 00 01 68 8A+接口号^%设备7+写Offset位数^4 5+写Offset协议^01 06 28 4C 00 00"
最小值1 = "1000.00"
最大值1 = "1500.00"
单位1 = ""
保存1 = "√"
执行方式1 = "判断"
变量1 = "XieYi"
输出参数1 = "Offset^+协议字符^XieYi"
VI路径1 = "逆变器"
设置标志1 = ""
跳转标志1 = ""
跳转条件1 = "继续测试"
项目名2 = "延时"
描述2 = "延时"
输入参数2 = "等待时间(s)^1"
最小值2 = "0.00"
最大值2 = "0.00"
单位2 = ""
保存2 = ""
执行方式2 = "运行"
变量2 = ""
输出参数2 = ""
VI路径2 = "其他"
设置标志2 = ""
跳转标志2 = ""
跳转条件2 = "继续测试"
项目名3 = "自定义协议发送"
描述3 = "下发校准协议"
输入参数3 = "16进制=0，字符=1^0+不检查应答=0，检查应答=1^0+接口号^%设备7+校验^2+协议^%XieYi"
最小值3 = "0.00"
最大值3 = "0.00"
单位3 = ""
保存3 = ""
执行方式3 = "运行"
变量3 = ""
输出参数3 = "应答数据^"
VI路径3 = "串口控制"
设置标志3 = ""
跳转标志3 = ""
跳转条件3 = "继续测试"
项目名4 = "延时"
描述4 = "延时"
输入参数4 = "等待时间(s)^1"
最小值4 = "0.00"
最大值4 = "0.00"
单位4 = ""
保存4 = ""
执行方式4 = "运行"
变量4 = ""
输出参数4 = ""
VI路径4 = "其他"
设置标志4 = ""
跳转标志4 = ""
跳转条件4 = "继续测试"

[Project19]
项目名1 = "Offset校准"
描述1 = "MPPT 4 电流Offset校准"
输入参数1 = "测量数据读取次数^3+读位数^3 4+读协议^01 04 86 41 00 01 48 96+接口号^%设备7+写Offset位数^4 5+写Offset协议^01 06 28 4E 00 00"
最小值1 = "1000.00"
最大值1 = "1500.00"
单位1 = ""
保存1 = "√"
执行方式1 = "判断"
变量1 = "XieYi"
输出参数1 = "Offset^+协议字符^XieYi"
VI路径1 = "逆变器"
设置标志1 = ""
跳转标志1 = ""
跳转条件1 = "继续测试"
项目名2 = "延时"
描述2 = "延时"
输入参数2 = "等待时间(s)^1"
最小值2 = "0.00"
最大值2 = "0.00"
单位2 = ""
保存2 = ""
执行方式2 = "运行"
变量2 = ""
输出参数2 = ""
VI路径2 = "其他"
设置标志2 = ""
跳转标志2 = ""
跳转条件2 = "继续测试"
项目名3 = "自定义协议发送"
描述3 = "下发校准协议"
输入参数3 = "16进制=0，字符=1^0+不检查应答=0，检查应答=1^0+接口号^%设备7+校验^2+协议^%XieYi"
最小值3 = "0.00"
最大值3 = "0.00"
单位3 = ""
保存3 = ""
执行方式3 = "运行"
变量3 = ""
输出参数3 = "应答数据^"
VI路径3 = "串口控制"
设置标志3 = ""
跳转标志3 = ""
跳转条件3 = "继续测试"
项目名4 = "延时"
描述4 = "延时"
输入参数4 = "等待时间(s)^1"
最小值4 = "0.00"
最大值4 = "0.00"
单位4 = ""
保存4 = ""
执行方式4 = "运行"
变量4 = ""
输出参数4 = ""
VI路径4 = "其他"
设置标志4 = ""
跳转标志4 = ""
跳转条件4 = "继续测试"

[Project20]
项目名1 = "Offset校准"
描述1 = "MPPT 5 电流Offset校准"
输入参数1 = "测量数据读取次数^3+读位数^3 4+读协议^01 04 86 42 00 01 B8 96+接口号^%设备7+写Offset位数^4 5+写Offset协议^01 06 28 50 00 00"
最小值1 = "1000.00"
最大值1 = "1500.00"
单位1 = ""
保存1 = "√"
执行方式1 = "判断"
变量1 = "XieYi"
输出参数1 = "Offset^+协议字符^XieYi"
VI路径1 = "逆变器"
设置标志1 = ""
跳转标志1 = ""
跳转条件1 = "继续测试"
项目名2 = "延时"
描述2 = "延时"
输入参数2 = "等待时间(s)^1"
最小值2 = "0.00"
最大值2 = "0.00"
单位2 = ""
保存2 = ""
执行方式2 = "运行"
变量2 = ""
输出参数2 = ""
VI路径2 = "其他"
设置标志2 = ""
跳转标志2 = ""
跳转条件2 = "继续测试"
项目名3 = "自定义协议发送"
描述3 = "下发校准协议"
输入参数3 = "16进制=0，字符=1^0+不检查应答=0，检查应答=1^0+接口号^%设备7+校验^2+协议^%XieYi"
最小值3 = "0.00"
最大值3 = "0.00"
单位3 = ""
保存3 = ""
执行方式3 = "运行"
变量3 = ""
输出参数3 = "应答数据^"
VI路径3 = "串口控制"
设置标志3 = ""
跳转标志3 = ""
跳转条件3 = "继续测试"
项目名4 = "延时"
描述4 = "延时"
输入参数4 = "等待时间(s)^1"
最小值4 = "0.00"
最大值4 = "0.00"
单位4 = ""
保存4 = ""
执行方式4 = "运行"
变量4 = ""
输出参数4 = ""
VI路径4 = "其他"
设置标志4 = ""
跳转标志4 = ""
跳转条件4 = "继续测试"

[Project21]
项目名1 = "Offset校准"
描述1 = "MPPT 6 电流Offset校准"
输入参数1 = "测量数据读取次数^3+读位数^3 4+读协议^01 04 86 43 00 01 E9 56+接口号^%设备7+写Offset位数^4 5+写Offset协议^01 06 28 52 00 00"
最小值1 = "1000.00"
最大值1 = "1500.00"
单位1 = ""
保存1 = "√"
执行方式1 = "判断"
变量1 = "XieYi"
输出参数1 = "Offset^+协议字符^XieYi"
VI路径1 = "逆变器"
设置标志1 = ""
跳转标志1 = ""
跳转条件1 = "继续测试"
项目名2 = "延时"
描述2 = "延时"
输入参数2 = "等待时间(s)^1"
最小值2 = "0.00"
最大值2 = "0.00"
单位2 = ""
保存2 = ""
执行方式2 = "运行"
变量2 = ""
输出参数2 = ""
VI路径2 = "其他"
设置标志2 = ""
跳转标志2 = ""
跳转条件2 = "继续测试"
项目名3 = "自定义协议发送"
描述3 = "下发校准协议"
输入参数3 = "16进制=0，字符=1^0+不检查应答=0，检查应答=1^0+接口号^%设备7+校验^2+协议^%XieYi"
最小值3 = "0.00"
最大值3 = "0.00"
单位3 = ""
保存3 = ""
执行方式3 = "运行"
变量3 = ""
输出参数3 = "应答数据^"
VI路径3 = "串口控制"
设置标志3 = ""
跳转标志3 = ""
跳转条件3 = "继续测试"
项目名4 = "延时"
描述4 = "延时"
输入参数4 = "等待时间(s)^1"
最小值4 = "0.00"
最大值4 = "0.00"
单位4 = ""
保存4 = ""
执行方式4 = "运行"
变量4 = ""
输出参数4 = ""
VI路径4 = "其他"
设置标志4 = ""
跳转标志4 = ""
跳转条件4 = "继续测试"

[Project22]
项目名1 = "Offset校准"
描述1 = "MPPT 7 电流Offset校准"
输入参数1 = "测量数据读取次数^3+读位数^3 4+读协议^01 04 86 44 00 01 58 97+接口号^%设备7+写Offset位数^4 5+写Offset协议^01 06 28 54 00 00"
最小值1 = "1000.00"
最大值1 = "1500.00"
单位1 = ""
保存1 = "√"
执行方式1 = "判断"
变量1 = "XieYi"
输出参数1 = "Offset^+协议字符^XieYi"
VI路径1 = "逆变器"
设置标志1 = ""
跳转标志1 = ""
跳转条件1 = "继续测试"
项目名2 = "延时"
描述2 = "延时"
输入参数2 = "等待时间(s)^1"
最小值2 = "0.00"
最大值2 = "0.00"
单位2 = ""
保存2 = ""
执行方式2 = "运行"
变量2 = ""
输出参数2 = ""
VI路径2 = "其他"
设置标志2 = ""
跳转标志2 = ""
跳转条件2 = "继续测试"
项目名3 = "自定义协议发送"
描述3 = "下发校准协议"
输入参数3 = "16进制=0，字符=1^0+不检查应答=0，检查应答=1^0+接口号^%设备7+校验^2+协议^%XieYi"
最小值3 = "0.00"
最大值3 = "0.00"
单位3 = ""
保存3 = ""
执行方式3 = "运行"
变量3 = ""
输出参数3 = "应答数据^"
VI路径3 = "串口控制"
设置标志3 = ""
跳转标志3 = ""
跳转条件3 = "继续测试"
项目名4 = "延时"
描述4 = "延时"
输入参数4 = "等待时间(s)^1"
最小值4 = "0.00"
最大值4 = "0.00"
单位4 = ""
保存4 = ""
执行方式4 = "运行"
变量4 = ""
输出参数4 = ""
VI路径4 = "其他"
设置标志4 = ""
跳转标志4 = ""
跳转条件4 = "继续测试"

[Project23]
项目名1 = "Offset校准"
描述1 = "MPPT 8 电流Offset校准"
输入参数1 = "测量数据读取次数^3+读位数^3 4+读协议^01 04 86 45 00 01 09 57+接口号^%设备7+写Offset位数^4 5+写Offset协议^01 06 28 56 00 00"
最小值1 = "1000.00"
最大值1 = "1500.00"
单位1 = ""
保存1 = "√"
执行方式1 = "判断"
变量1 = "XieYi"
输出参数1 = "Offset^+协议字符^XieYi"
VI路径1 = "逆变器"
设置标志1 = ""
跳转标志1 = ""
跳转条件1 = "继续测试"
项目名2 = "延时"
描述2 = "延时"
输入参数2 = "等待时间(s)^1"
最小值2 = "0.00"
最大值2 = "0.00"
单位2 = ""
保存2 = ""
执行方式2 = "运行"
变量2 = ""
输出参数2 = ""
VI路径2 = "其他"
设置标志2 = ""
跳转标志2 = ""
跳转条件2 = "继续测试"
项目名3 = "自定义协议发送"
描述3 = "下发校准协议"
输入参数3 = "16进制=0，字符=1^0+不检查应答=0，检查应答=1^0+接口号^%设备7+校验^2+协议^%XieYi"
最小值3 = "0.00"
最大值3 = "0.00"
单位3 = ""
保存3 = ""
执行方式3 = "运行"
变量3 = ""
输出参数3 = "应答数据^"
VI路径3 = "串口控制"
设置标志3 = ""
跳转标志3 = ""
跳转条件3 = "继续测试"
项目名4 = "延时"
描述4 = "延时"
输入参数4 = "等待时间(s)^1"
最小值4 = "0.00"
最大值4 = "0.00"
单位4 = ""
保存4 = ""
执行方式4 = "运行"
变量4 = ""
输出参数4 = ""
VI路径4 = "其他"
设置标志4 = ""
跳转标志4 = ""
跳转条件4 = "继续测试"

[Project24]
项目名1 = "Offset校准"
描述1 = "MPPT 9 电流Offset校准"
输入参数1 = "测量数据读取次数^3+读位数^3 4+读协议^01 04 86 46 00 01 F9 57+接口号^%设备7+写Offset位数^4 5+写Offset协议^01 06 28 58 00 00"
最小值1 = "1000.00"
最大值1 = "1500.00"
单位1 = ""
保存1 = "√"
执行方式1 = "判断"
变量1 = "XieYi"
输出参数1 = "Offset^+协议字符^XieYi"
VI路径1 = "逆变器"
设置标志1 = ""
跳转标志1 = ""
跳转条件1 = "继续测试"
项目名2 = "延时"
描述2 = "延时"
输入参数2 = "等待时间(s)^1"
最小值2 = "0.00"
最大值2 = "0.00"
单位2 = ""
保存2 = ""
执行方式2 = "运行"
变量2 = ""
输出参数2 = ""
VI路径2 = "其他"
设置标志2 = ""
跳转标志2 = ""
跳转条件2 = "继续测试"
项目名3 = "自定义协议发送"
描述3 = "下发校准协议"
输入参数3 = "16进制=0，字符=1^0+不检查应答=0，检查应答=1^0+接口号^%设备7+校验^2+协议^%XieYi"
最小值3 = "0.00"
最大值3 = "0.00"
单位3 = ""
保存3 = ""
执行方式3 = "运行"
变量3 = ""
输出参数3 = "应答数据^"
VI路径3 = "串口控制"
设置标志3 = ""
跳转标志3 = ""
跳转条件3 = "继续测试"
项目名4 = "延时"
描述4 = "延时"
输入参数4 = "等待时间(s)^1"
最小值4 = "0.00"
最大值4 = "0.00"
单位4 = ""
保存4 = ""
执行方式4 = "运行"
变量4 = ""
输出参数4 = ""
VI路径4 = "其他"
设置标志4 = ""
跳转标志4 = ""
跳转条件4 = "继续测试"

[Project25]
项目名1 = "Offset校准"
描述1 = "MPPT 10 电流Offset校准"
输入参数1 = "测量数据读取次数^3+读位数^3 4+读协议^01 04 86 47 00 01 A8 97+接口号^%设备7+写Offset位数^4 5+写Offset协议^01 06 28 5A 00 00"
最小值1 = "1000.00"
最大值1 = "1500.00"
单位1 = ""
保存1 = "√"
执行方式1 = "判断"
变量1 = "XieYi"
输出参数1 = "Offset^+协议字符^XieYi"
VI路径1 = "逆变器"
设置标志1 = ""
跳转标志1 = ""
跳转条件1 = "继续测试"
项目名2 = "延时"
描述2 = "延时"
输入参数2 = "等待时间(s)^1"
最小值2 = "0.00"
最大值2 = "0.00"
单位2 = ""
保存2 = ""
执行方式2 = "运行"
变量2 = ""
输出参数2 = ""
VI路径2 = "其他"
设置标志2 = ""
跳转标志2 = ""
跳转条件2 = "继续测试"
项目名3 = "自定义协议发送"
描述3 = "下发校准协议"
输入参数3 = "16进制=0，字符=1^0+不检查应答=0，检查应答=1^0+接口号^%设备7+校验^2+协议^%XieYi"
最小值3 = "0.00"
最大值3 = "0.00"
单位3 = ""
保存3 = ""
执行方式3 = "运行"
变量3 = ""
输出参数3 = "应答数据^"
VI路径3 = "串口控制"
设置标志3 = ""
跳转标志3 = ""
跳转条件3 = "继续测试"
项目名4 = "延时"
描述4 = "延时"
输入参数4 = "等待时间(s)^1"
最小值4 = "0.00"
最大值4 = "0.00"
单位4 = ""
保存4 = ""
执行方式4 = "运行"
变量4 = ""
输出参数4 = ""
VI路径4 = "其他"
设置标志4 = ""
跳转标志4 = ""
跳转条件4 = "继续测试"

[Project26]
项目名1 = "Offset校准"
描述1 = "MPPT 11 电流Offset校准"
输入参数1 = "测量数据读取次数^3+读位数^3 4+读协议^01 04 86 48 00 01 98 94+接口号^%设备7+写Offset位数^4 5+写Offset协议^01 06 28 5C 00 00"
最小值1 = "1000.00"
最大值1 = "1500.00"
单位1 = ""
保存1 = "√"
执行方式1 = "判断"
变量1 = "XieYi"
输出参数1 = "Offset^+协议字符^XieYi"
VI路径1 = "逆变器"
设置标志1 = ""
跳转标志1 = ""
跳转条件1 = "继续测试"
项目名2 = "延时"
描述2 = "延时"
输入参数2 = "等待时间(s)^1"
最小值2 = "0.00"
最大值2 = "0.00"
单位2 = ""
保存2 = ""
执行方式2 = "运行"
变量2 = ""
输出参数2 = ""
VI路径2 = "其他"
设置标志2 = ""
跳转标志2 = ""
跳转条件2 = "继续测试"
项目名3 = "自定义协议发送"
描述3 = "下发校准协议"
输入参数3 = "16进制=0，字符=1^0+不检查应答=0，检查应答=1^0+接口号^%设备7+校验^2+协议^%XieYi"
最小值3 = "0.00"
最大值3 = "0.00"
单位3 = ""
保存3 = ""
执行方式3 = "运行"
变量3 = ""
输出参数3 = "应答数据^"
VI路径3 = "串口控制"
设置标志3 = ""
跳转标志3 = ""
跳转条件3 = "继续测试"
项目名4 = "延时"
描述4 = "延时"
输入参数4 = "等待时间(s)^1"
最小值4 = "0.00"
最大值4 = "0.00"
单位4 = ""
保存4 = ""
执行方式4 = "运行"
变量4 = ""
输出参数4 = ""
VI路径4 = "其他"
设置标志4 = ""
跳转标志4 = ""
跳转条件4 = "继续测试"

[Project27]
项目名1 = "Offset校准"
描述1 = "MPPT 12 电流Offset校准"
输入参数1 = "测量数据读取次数^3+读位数^3 4+读协议^01 04 86 49 00 01 C9 54+接口号^%设备7+写Offset位数^4 5+写Offset协议^01 06 28 5E 00 00"
最小值1 = "1000.00"
最大值1 = "1500.00"
单位1 = ""
保存1 = "√"
执行方式1 = "判断"
变量1 = "XieYi"
输出参数1 = "Offset^+协议字符^XieYi"
VI路径1 = "逆变器"
设置标志1 = ""
跳转标志1 = ""
跳转条件1 = "继续测试"
项目名2 = "延时"
描述2 = "延时"
输入参数2 = "等待时间(s)^1"
最小值2 = "0.00"
最大值2 = "0.00"
单位2 = ""
保存2 = ""
执行方式2 = "运行"
变量2 = ""
输出参数2 = ""
VI路径2 = "其他"
设置标志2 = ""
跳转标志2 = ""
跳转条件2 = "继续测试"
项目名3 = "自定义协议发送"
描述3 = "下发校准协议"
输入参数3 = "16进制=0，字符=1^0+不检查应答=0，检查应答=1^0+接口号^%设备7+校验^2+协议^%XieYi"
最小值3 = "0.00"
最大值3 = "0.00"
单位3 = ""
保存3 = ""
执行方式3 = "运行"
变量3 = ""
输出参数3 = "应答数据^"
VI路径3 = "串口控制"
设置标志3 = ""
跳转标志3 = ""
跳转条件3 = "继续测试"
项目名4 = "延时"
描述4 = "延时"
输入参数4 = "等待时间(s)^1"
最小值4 = "0.00"
最大值4 = "0.00"
单位4 = ""
保存4 = ""
执行方式4 = "运行"
变量4 = ""
输出参数4 = ""
VI路径4 = "其他"
设置标志4 = ""
跳转标志4 = ""
跳转条件4 = "继续测试"

[Project28]
项目名1 = "Offset校准"
描述1 = "PV1组串电流Offset校准"
输入参数1 = "测量数据读取次数^3+读位数^3 4+读协议^01 04 86 4A 00 01 39 54+接口号^%设备7+写Offset位数^4 5+写Offset协议^01 06 28 60 00 00"
最小值1 = "10000.00"
最大值1 = "10500.00"
单位1 = ""
保存1 = "√"
执行方式1 = "判断"
变量1 = "XieYi"
输出参数1 = "Offset^+协议字符^XieYi"
VI路径1 = "逆变器"
设置标志1 = ""
跳转标志1 = ""
跳转条件1 = "继续测试"
项目名2 = "延时"
描述2 = "延时"
输入参数2 = "等待时间(s)^1"
最小值2 = "0.00"
最大值2 = "0.00"
单位2 = ""
保存2 = ""
执行方式2 = "运行"
变量2 = ""
输出参数2 = ""
VI路径2 = "其他"
设置标志2 = ""
跳转标志2 = ""
跳转条件2 = "继续测试"
项目名3 = "自定义协议发送"
描述3 = "下发校准协议"
输入参数3 = "16进制=0，字符=1^0+不检查应答=0，检查应答=1^0+接口号^%设备7+校验^2+协议^%XieYi"
最小值3 = "0.00"
最大值3 = "0.00"
单位3 = ""
保存3 = ""
执行方式3 = "运行"
变量3 = ""
输出参数3 = "应答数据^"
VI路径3 = "串口控制"
设置标志3 = ""
跳转标志3 = ""
跳转条件3 = "继续测试"
项目名4 = "延时"
描述4 = "延时"
输入参数4 = "等待时间(s)^1"
最小值4 = "0.00"
最大值4 = "0.00"
单位4 = ""
保存4 = ""
执行方式4 = "运行"
变量4 = ""
输出参数4 = ""
VI路径4 = "其他"
设置标志4 = ""
跳转标志4 = ""
跳转条件4 = "继续测试"

[Project29]
项目名1 = "Offset校准"
描述1 = "PV3组串电流Offset校准"
输入参数1 = "测量数据读取次数^3+读位数^3 4+读协议^01 04 86 4B 00 01 68 94+接口号^%设备7+写Offset位数^4 5+写Offset协议^01 06 28 62 00 00"
最小值1 = "10000.00"
最大值1 = "10500.00"
单位1 = ""
保存1 = "√"
执行方式1 = "判断"
变量1 = "XieYi"
输出参数1 = "Offset^+协议字符^XieYi"
VI路径1 = "逆变器"
设置标志1 = ""
跳转标志1 = ""
跳转条件1 = "继续测试"
项目名2 = "延时"
描述2 = "延时"
输入参数2 = "等待时间(s)^1"
最小值2 = "0.00"
最大值2 = "0.00"
单位2 = ""
保存2 = ""
执行方式2 = "运行"
变量2 = ""
输出参数2 = ""
VI路径2 = "其他"
设置标志2 = ""
跳转标志2 = ""
跳转条件2 = "继续测试"
项目名3 = "自定义协议发送"
描述3 = "下发校准协议"
输入参数3 = "16进制=0，字符=1^0+不检查应答=0，检查应答=1^0+接口号^%设备7+校验^2+协议^%XieYi"
最小值3 = "0.00"
最大值3 = "0.00"
单位3 = ""
保存3 = ""
执行方式3 = "运行"
变量3 = ""
输出参数3 = "应答数据^"
VI路径3 = "串口控制"
设置标志3 = ""
跳转标志3 = ""
跳转条件3 = "继续测试"
项目名4 = "延时"
描述4 = "延时"
输入参数4 = "等待时间(s)^1"
最小值4 = "0.00"
最大值4 = "0.00"
单位4 = ""
保存4 = ""
执行方式4 = "运行"
变量4 = ""
输出参数4 = ""
VI路径4 = "其他"
设置标志4 = ""
跳转标志4 = ""
跳转条件4 = "继续测试"

[Project30]
项目名1 = "Offset校准"
描述1 = "PV5组串电流Offset校准"
输入参数1 = "测量数据读取次数^3+读位数^3 4+读协议^01 04 86 4C 00 01 D9 55+接口号^%设备7+写Offset位数^4 5+写Offset协议^01 06 28 64 00 00"
最小值1 = "10000.00"
最大值1 = "10500.00"
单位1 = ""
保存1 = "√"
执行方式1 = "判断"
变量1 = "XieYi"
输出参数1 = "Offset^+协议字符^XieYi"
VI路径1 = "逆变器"
设置标志1 = ""
跳转标志1 = ""
跳转条件1 = "继续测试"
项目名2 = "延时"
描述2 = "延时"
输入参数2 = "等待时间(s)^1"
最小值2 = "0.00"
最大值2 = "0.00"
单位2 = ""
保存2 = ""
执行方式2 = "运行"
变量2 = ""
输出参数2 = ""
VI路径2 = "其他"
设置标志2 = ""
跳转标志2 = ""
跳转条件2 = "继续测试"
项目名3 = "自定义协议发送"
描述3 = "下发校准协议"
输入参数3 = "16进制=0，字符=1^0+不检查应答=0，检查应答=1^0+接口号^%设备7+校验^2+协议^%XieYi"
最小值3 = "0.00"
最大值3 = "0.00"
单位3 = ""
保存3 = ""
执行方式3 = "运行"
变量3 = ""
输出参数3 = "应答数据^"
VI路径3 = "串口控制"
设置标志3 = ""
跳转标志3 = ""
跳转条件3 = "继续测试"
项目名4 = "延时"
描述4 = "延时"
输入参数4 = "等待时间(s)^1"
最小值4 = "0.00"
最大值4 = "0.00"
单位4 = ""
保存4 = ""
执行方式4 = "运行"
变量4 = ""
输出参数4 = ""
VI路径4 = "其他"
设置标志4 = ""
跳转标志4 = ""
跳转条件4 = "继续测试"

[Project31]
项目名1 = "Offset校准"
描述1 = "PV7组串电流Offset校准"
输入参数1 = "测量数据读取次数^3+读位数^3 4+读协议^01 04 86 4D 00 01 88 95+接口号^%设备7+写Offset位数^4 5+写Offset协议^01 06 28 66 00 00"
最小值1 = "10000.00"
最大值1 = "10500.00"
单位1 = ""
保存1 = "√"
执行方式1 = "判断"
变量1 = "XieYi"
输出参数1 = "Offset^+协议字符^XieYi"
VI路径1 = "逆变器"
设置标志1 = ""
跳转标志1 = ""
跳转条件1 = "继续测试"
项目名2 = "延时"
描述2 = "延时"
输入参数2 = "等待时间(s)^1"
最小值2 = "0.00"
最大值2 = "0.00"
单位2 = ""
保存2 = ""
执行方式2 = "运行"
变量2 = ""
输出参数2 = ""
VI路径2 = "其他"
设置标志2 = ""
跳转标志2 = ""
跳转条件2 = "继续测试"
项目名3 = "自定义协议发送"
描述3 = "下发校准协议"
输入参数3 = "16进制=0，字符=1^0+不检查应答=0，检查应答=1^0+接口号^%设备7+校验^2+协议^%XieYi"
最小值3 = "0.00"
最大值3 = "0.00"
单位3 = ""
保存3 = ""
执行方式3 = "运行"
变量3 = ""
输出参数3 = "应答数据^"
VI路径3 = "串口控制"
设置标志3 = ""
跳转标志3 = ""
跳转条件3 = "继续测试"
项目名4 = "延时"
描述4 = "延时"
输入参数4 = "等待时间(s)^1"
最小值4 = "0.00"
最大值4 = "0.00"
单位4 = ""
保存4 = ""
执行方式4 = "运行"
变量4 = ""
输出参数4 = ""
VI路径4 = "其他"
设置标志4 = ""
跳转标志4 = ""
跳转条件4 = "继续测试"

[Project32]
项目名1 = "Offset校准"
描述1 = "PV9组串电流Offset校准"
输入参数1 = "测量数据读取次数^3+读位数^3 4+读协议^01 04 86 4E 00 01 78 95+接口号^%设备7+写Offset位数^4 5+写Offset协议^01 06 28 68 00 00"
最小值1 = "10000.00"
最大值1 = "10500.00"
单位1 = ""
保存1 = "√"
执行方式1 = "判断"
变量1 = "XieYi"
输出参数1 = "Offset^+协议字符^XieYi"
VI路径1 = "逆变器"
设置标志1 = ""
跳转标志1 = ""
跳转条件1 = "继续测试"
项目名2 = "延时"
描述2 = "延时"
输入参数2 = "等待时间(s)^1"
最小值2 = "0.00"
最大值2 = "0.00"
单位2 = ""
保存2 = ""
执行方式2 = "运行"
变量2 = ""
输出参数2 = ""
VI路径2 = "其他"
设置标志2 = ""
跳转标志2 = ""
跳转条件2 = "继续测试"
项目名3 = "自定义协议发送"
描述3 = "下发校准协议"
输入参数3 = "16进制=0，字符=1^0+不检查应答=0，检查应答=1^0+接口号^%设备7+校验^2+协议^%XieYi"
最小值3 = "0.00"
最大值3 = "0.00"
单位3 = ""
保存3 = ""
执行方式3 = "运行"
变量3 = ""
输出参数3 = "应答数据^"
VI路径3 = "串口控制"
设置标志3 = ""
跳转标志3 = ""
跳转条件3 = "继续测试"
项目名4 = "延时"
描述4 = "延时"
输入参数4 = "等待时间(s)^1"
最小值4 = "0.00"
最大值4 = "0.00"
单位4 = ""
保存4 = ""
执行方式4 = "运行"
变量4 = ""
输出参数4 = ""
VI路径4 = "其他"
设置标志4 = ""
跳转标志4 = ""
跳转条件4 = "继续测试"

[Project33]
项目名1 = "Offset校准"
描述1 = "PV11组串电流Offset校准"
输入参数1 = "测量数据读取次数^3+读位数^3 4+读协议^01 04 86 4F 00 01 29 55+接口号^%设备7+写Offset位数^4 5+写Offset协议^01 06 28 6A 00 00"
最小值1 = "10000.00"
最大值1 = "10500.00"
单位1 = ""
保存1 = "√"
执行方式1 = "判断"
变量1 = "XieYi"
输出参数1 = "Offset^+协议字符^XieYi"
VI路径1 = "逆变器"
设置标志1 = ""
跳转标志1 = ""
跳转条件1 = "继续测试"
项目名2 = "延时"
描述2 = "延时"
输入参数2 = "等待时间(s)^1"
最小值2 = "0.00"
最大值2 = "0.00"
单位2 = ""
保存2 = ""
执行方式2 = "运行"
变量2 = ""
输出参数2 = ""
VI路径2 = "其他"
设置标志2 = ""
跳转标志2 = ""
跳转条件2 = "继续测试"
项目名3 = "自定义协议发送"
描述3 = "下发校准协议"
输入参数3 = "16进制=0，字符=1^0+不检查应答=0，检查应答=1^0+接口号^%设备7+校验^2+协议^%XieYi"
最小值3 = "0.00"
最大值3 = "0.00"
单位3 = ""
保存3 = ""
执行方式3 = "运行"
变量3 = ""
输出参数3 = "应答数据^"
VI路径3 = "串口控制"
设置标志3 = ""
跳转标志3 = ""
跳转条件3 = "继续测试"
项目名4 = "延时"
描述4 = "延时"
输入参数4 = "等待时间(s)^1"
最小值4 = "0.00"
最大值4 = "0.00"
单位4 = ""
保存4 = ""
执行方式4 = "运行"
变量4 = ""
输出参数4 = ""
VI路径4 = "其他"
设置标志4 = ""
跳转标志4 = ""
跳转条件4 = "继续测试"

[Project34]
项目名1 = "Offset校准"
描述1 = "PV13组串电流Offset校准"
输入参数1 = "测量数据读取次数^3+读位数^3 4+读协议^01 04 86 50 00 01 18 93+接口号^%设备7+写Offset位数^4 5+写Offset协议^01 06 28 6C 00 00"
最小值1 = "10000.00"
最大值1 = "10500.00"
单位1 = ""
保存1 = "√"
执行方式1 = "判断"
变量1 = "XieYi"
输出参数1 = "Offset^+协议字符^XieYi"
VI路径1 = "逆变器"
设置标志1 = ""
跳转标志1 = ""
跳转条件1 = "继续测试"
项目名2 = "延时"
描述2 = "延时"
输入参数2 = "等待时间(s)^1"
最小值2 = "0.00"
最大值2 = "0.00"
单位2 = ""
保存2 = ""
执行方式2 = "运行"
变量2 = ""
输出参数2 = ""
VI路径2 = "其他"
设置标志2 = ""
跳转标志2 = ""
跳转条件2 = "继续测试"
项目名3 = "自定义协议发送"
描述3 = "下发校准协议"
输入参数3 = "16进制=0，字符=1^0+不检查应答=0，检查应答=1^0+接口号^%设备7+校验^2+协议^%XieYi"
最小值3 = "0.00"
最大值3 = "0.00"
单位3 = ""
保存3 = ""
执行方式3 = "运行"
变量3 = ""
输出参数3 = "应答数据^"
VI路径3 = "串口控制"
设置标志3 = ""
跳转标志3 = ""
跳转条件3 = "继续测试"
项目名4 = "延时"
描述4 = "延时"
输入参数4 = "等待时间(s)^1"
最小值4 = "0.00"
最大值4 = "0.00"
单位4 = ""
保存4 = ""
执行方式4 = "运行"
变量4 = ""
输出参数4 = ""
VI路径4 = "其他"
设置标志4 = ""
跳转标志4 = ""
跳转条件4 = "继续测试"

[Project35]
项目名1 = "Offset校准"
描述1 = "PV15组串电流Offset校准"
输入参数1 = "测量数据读取次数^3+读位数^3 4+读协议^01 04 86 51 00 01 49 53+接口号^%设备7+写Offset位数^4 5+写Offset协议^01 06 28 6E 00 00"
最小值1 = "10000.00"
最大值1 = "10500.00"
单位1 = ""
保存1 = "√"
执行方式1 = "判断"
变量1 = "XieYi"
输出参数1 = "Offset^+协议字符^XieYi"
VI路径1 = "逆变器"
设置标志1 = ""
跳转标志1 = ""
跳转条件1 = "继续测试"
项目名2 = "延时"
描述2 = "延时"
输入参数2 = "等待时间(s)^1"
最小值2 = "0.00"
最大值2 = "0.00"
单位2 = ""
保存2 = ""
执行方式2 = "运行"
变量2 = ""
输出参数2 = ""
VI路径2 = "其他"
设置标志2 = ""
跳转标志2 = ""
跳转条件2 = "继续测试"
项目名3 = "自定义协议发送"
描述3 = "下发校准协议"
输入参数3 = "16进制=0，字符=1^0+不检查应答=0，检查应答=1^0+接口号^%设备7+校验^2+协议^%XieYi"
最小值3 = "0.00"
最大值3 = "0.00"
单位3 = ""
保存3 = ""
执行方式3 = "运行"
变量3 = ""
输出参数3 = "应答数据^"
VI路径3 = "串口控制"
设置标志3 = ""
跳转标志3 = ""
跳转条件3 = "继续测试"
项目名4 = "延时"
描述4 = "延时"
输入参数4 = "等待时间(s)^1"
最小值4 = "0.00"
最大值4 = "0.00"
单位4 = ""
保存4 = ""
执行方式4 = "运行"
变量4 = ""
输出参数4 = ""
VI路径4 = "其他"
设置标志4 = ""
跳转标志4 = ""
跳转条件4 = "继续测试"

[Project36]
项目名1 = "Offset校准"
描述1 = "PV17组串电流Offset校准"
输入参数1 = "测量数据读取次数^3+读位数^3 4+读协议^01 04 86 52 00 01 B9 53+接口号^%设备7+写Offset位数^4 5+写Offset协议^01 06 28 70 00 00"
最小值1 = "10000.00"
最大值1 = "10500.00"
单位1 = ""
保存1 = "√"
执行方式1 = "判断"
变量1 = "XieYi"
输出参数1 = "Offset^+协议字符^XieYi"
VI路径1 = "逆变器"
设置标志1 = ""
跳转标志1 = ""
跳转条件1 = "继续测试"
项目名2 = "延时"
描述2 = "延时"
输入参数2 = "等待时间(s)^1"
最小值2 = "0.00"
最大值2 = "0.00"
单位2 = ""
保存2 = ""
执行方式2 = "运行"
变量2 = ""
输出参数2 = ""
VI路径2 = "其他"
设置标志2 = ""
跳转标志2 = ""
跳转条件2 = "继续测试"
项目名3 = "自定义协议发送"
描述3 = "下发校准协议"
输入参数3 = "16进制=0，字符=1^0+不检查应答=0，检查应答=1^0+接口号^%设备7+校验^2+协议^%XieYi"
最小值3 = "0.00"
最大值3 = "0.00"
单位3 = ""
保存3 = ""
执行方式3 = "运行"
变量3 = ""
输出参数3 = "应答数据^"
VI路径3 = "串口控制"
设置标志3 = ""
跳转标志3 = ""
跳转条件3 = "继续测试"
项目名4 = "延时"
描述4 = "延时"
输入参数4 = "等待时间(s)^1"
最小值4 = "0.00"
最大值4 = "0.00"
单位4 = ""
保存4 = ""
执行方式4 = "运行"
变量4 = ""
输出参数4 = ""
VI路径4 = "其他"
设置标志4 = ""
跳转标志4 = ""
跳转条件4 = "继续测试"

[Project37]
项目名1 = "Offset校准"
描述1 = "PV19组串电流Offset校准"
输入参数1 = "测量数据读取次数^3+读位数^3 4+读协议^01 04 86 53 00 01 E8 93+接口号^%设备7+写Offset位数^4 5+写Offset协议^01 06 28 72 00 00"
最小值1 = "10000.00"
最大值1 = "10500.00"
单位1 = ""
保存1 = "√"
执行方式1 = "判断"
变量1 = "XieYi"
输出参数1 = "Offset^+协议字符^XieYi"
VI路径1 = "逆变器"
设置标志1 = ""
跳转标志1 = ""
跳转条件1 = "继续测试"
项目名2 = "延时"
描述2 = "延时"
输入参数2 = "等待时间(s)^1"
最小值2 = "0.00"
最大值2 = "0.00"
单位2 = ""
保存2 = ""
执行方式2 = "运行"
变量2 = ""
输出参数2 = ""
VI路径2 = "其他"
设置标志2 = ""
跳转标志2 = ""
跳转条件2 = "继续测试"
项目名3 = "自定义协议发送"
描述3 = "下发校准协议"
输入参数3 = "16进制=0，字符=1^0+不检查应答=0，检查应答=1^0+接口号^%设备7+校验^2+协议^%XieYi"
最小值3 = "0.00"
最大值3 = "0.00"
单位3 = ""
保存3 = ""
执行方式3 = "运行"
变量3 = ""
输出参数3 = "应答数据^"
VI路径3 = "串口控制"
设置标志3 = ""
跳转标志3 = ""
跳转条件3 = "继续测试"
项目名4 = "延时"
描述4 = "延时"
输入参数4 = "等待时间(s)^1"
最小值4 = "0.00"
最大值4 = "0.00"
单位4 = ""
保存4 = ""
执行方式4 = "运行"
变量4 = ""
输出参数4 = ""
VI路径4 = "其他"
设置标志4 = ""
跳转标志4 = ""
跳转条件4 = "继续测试"

[Project38]
项目名1 = "Offset校准"
描述1 = "PV21组串电流 Offset校准"
输入参数1 = "测量数据读取次数^3+读位数^3 4+读协议^01 04 86 54 00 01 59 52+接口号^%设备7+写Offset位数^4 5+写Offset协议^01 06 28 74 00 00"
最小值1 = "10000.00"
最大值1 = "10500.00"
单位1 = ""
保存1 = "√"
执行方式1 = "判断"
变量1 = "XieYi"
输出参数1 = "Offset^+协议字符^XieYi"
VI路径1 = "逆变器"
设置标志1 = ""
跳转标志1 = ""
跳转条件1 = "继续测试"
项目名2 = "延时"
描述2 = "延时"
输入参数2 = "等待时间(s)^1"
最小值2 = "0.00"
最大值2 = "0.00"
单位2 = ""
保存2 = ""
执行方式2 = "运行"
变量2 = ""
输出参数2 = ""
VI路径2 = "其他"
设置标志2 = ""
跳转标志2 = ""
跳转条件2 = "继续测试"
项目名3 = "自定义协议发送"
描述3 = "下发校准协议"
输入参数3 = "16进制=0，字符=1^0+不检查应答=0，检查应答=1^0+接口号^%设备7+校验^2+协议^%XieYi"
最小值3 = "0.00"
最大值3 = "0.00"
单位3 = ""
保存3 = ""
执行方式3 = "运行"
变量3 = ""
输出参数3 = "应答数据^"
VI路径3 = "串口控制"
设置标志3 = ""
跳转标志3 = ""
跳转条件3 = "继续测试"
项目名4 = "延时"
描述4 = "延时"
输入参数4 = "等待时间(s)^1"
最小值4 = "0.00"
最大值4 = "0.00"
单位4 = ""
保存4 = ""
执行方式4 = "运行"
变量4 = ""
输出参数4 = ""
VI路径4 = "其他"
设置标志4 = ""
跳转标志4 = ""
跳转条件4 = "继续测试"

[Project39]
项目名1 = "Offset校准"
描述1 = "PV23组串电流Offset校准"
输入参数1 = "测量数据读取次数^3+读位数^3 4+读协议^01 04 86 55 00 01 08 92+接口号^%设备7+写Offset位数^4 5+写Offset协议^01 06 28 76 00 00"
最小值1 = "10000.00"
最大值1 = "10500.00"
单位1 = ""
保存1 = "√"
执行方式1 = "判断"
变量1 = "XieYi"
输出参数1 = "Offset^+协议字符^XieYi"
VI路径1 = "逆变器"
设置标志1 = ""
跳转标志1 = ""
跳转条件1 = "继续测试"
项目名2 = "延时"
描述2 = "延时"
输入参数2 = "等待时间(s)^1"
最小值2 = "0.00"
最大值2 = "0.00"
单位2 = ""
保存2 = ""
执行方式2 = "运行"
变量2 = ""
输出参数2 = ""
VI路径2 = "其他"
设置标志2 = ""
跳转标志2 = ""
跳转条件2 = "继续测试"
项目名3 = "自定义协议发送"
描述3 = "下发校准协议"
输入参数3 = "16进制=0，字符=1^0+不检查应答=0，检查应答=1^0+接口号^%设备7+校验^2+协议^%XieYi"
最小值3 = "0.00"
最大值3 = "0.00"
单位3 = ""
保存3 = ""
执行方式3 = "运行"
变量3 = ""
输出参数3 = "应答数据^"
VI路径3 = "串口控制"
设置标志3 = ""
跳转标志3 = ""
跳转条件3 = "继续测试"
项目名4 = "延时"
描述4 = "延时"
输入参数4 = "等待时间(s)^1"
最小值4 = "0.00"
最大值4 = "0.00"
单位4 = ""
保存4 = ""
执行方式4 = "运行"
变量4 = ""
输出参数4 = ""
VI路径4 = "其他"
设置标志4 = ""
跳转标志4 = ""
跳转条件4 = "继续测试"

[Project40]
项目名1 = "获取系统时间"
描述1 = "获取系统时间"
输入参数1 = "时间偏移(小时)^0"
最小值1 = "0.00"
最大值1 = "0.00"
单位1 = ""
保存1 = ""
执行方式1 = "运行"
变量1 = "SYS_TIME"
输出参数1 = "输出数据^SYS_TIME"
VI路径1 = "其他"
设置标志1 = ""
跳转标志1 = ""
跳转条件1 = ""
项目名2 = "MID String"
描述2 = "获取年高位"
输入参数2 = "长度^2+偏移量^0+输入字符串^%SYS_TIME"
最小值2 = "0.00"
最大值2 = "0.00"
单位2 = ""
保存2 = ""
执行方式2 = "运行"
变量2 = "Y_H"
输出参数2 = "结果字符串^Y_H"
VI路径2 = "其他"
设置标志2 = ""
跳转标志2 = ""
跳转条件2 = ""
项目名3 = "MID String"
描述3 = "获取年低位"
输入参数3 = "长度^2+偏移量^2+输入字符串^%SYS_TIME"
最小值3 = "0.00"
最大值3 = "0.00"
单位3 = ""
保存3 = ""
执行方式3 = "运行"
变量3 = "Y_L"
输出参数3 = "结果字符串^Y_L"
VI路径3 = "其他"
设置标志3 = ""
跳转标志3 = ""
跳转条件3 = ""
项目名4 = "MID String"
描述4 = "获取月"
输入参数4 = "长度^2+偏移量^4+输入字符串^%SYS_TIME"
最小值4 = "0.00"
最大值4 = "0.00"
单位4 = ""
保存4 = ""
执行方式4 = "运行"
变量4 = "M"
输出参数4 = "结果字符串^M"
VI路径4 = "其他"
设置标志4 = ""
跳转标志4 = ""
跳转条件4 = ""
项目名5 = "MID String"
描述5 = "获取日"
输入参数5 = "长度^2+偏移量^6+输入字符串^%SYS_TIME"
最小值5 = "0.00"
最大值5 = "0.00"
单位5 = ""
保存5 = ""
执行方式5 = "运行"
变量5 = "D"
输出参数5 = "结果字符串^D"
VI路径5 = "其他"
设置标志5 = ""
跳转标志5 = ""
跳转条件5 = ""
项目名6 = "MID String"
描述6 = "获取时"
输入参数6 = "长度^2+偏移量^8+输入字符串^%SYS_TIME"
最小值6 = "0.00"
最大值6 = "0.00"
单位6 = ""
保存6 = ""
执行方式6 = "运行"
变量6 = "H"
输出参数6 = "结果字符串^H"
VI路径6 = "其他"
设置标志6 = ""
跳转标志6 = ""
跳转条件6 = ""
项目名7 = "MID String"
描述7 = "获取分"
输入参数7 = "长度^2+偏移量^10+输入字符串^%SYS_TIME"
最小值7 = "0.00"
最大值7 = "0.00"
单位7 = ""
保存7 = ""
执行方式7 = "运行"
变量7 = "mm"
输出参数7 = "结果字符串^mm"
VI路径7 = "其他"
设置标志7 = ""
跳转标志7 = ""
跳转条件7 = ""
项目名8 = "MID String"
描述8 = "获取秒"
输入参数8 = "长度^2+偏移量^12+输入字符串^%SYS_TIME"
最小值8 = "0.00"
最大值8 = "0.00"
单位8 = ""
保存8 = ""
执行方式8 = "运行"
变量8 = "S"
输出参数8 = "结果字符串^S"
VI路径8 = "其他"
设置标志8 = ""
跳转标志8 = ""
跳转条件8 = ""
项目名9 = "Merge Strings"
描述9 = "组合协议"
输入参数9 = "变量1^01 10 10 04 00 04 08 +变量2^%Y_H+变量3^ +变量4^%Y_L+变量5^ +变量6^%M+变量7^ +变量8^%D"
最小值9 = "0.00"
最大值9 = "0.00"
单位9 = ""
保存9 = "√"
执行方式9 = "运行"
变量9 = "Commad1"
输出参数9 = "结果字符串^Commad1"
VI路径9 = "其他"
设置标志9 = ""
跳转标志9 = ""
跳转条件9 = "继续测试"
项目名10 = "Merge Strings"
描述10 = "组合协议"
输入参数10 = "变量1^%Commad1+变量2^ +变量3^%H+变量4^ +变量5^%mm+变量6^ +变量7^%S+变量8^ 00"
最小值10 = "0.00"
最大值10 = "0.00"
单位10 = ""
保存10 = ""
执行方式10 = "运行"
变量10 = "Commad1"
输出参数10 = "结果字符串^Commad1"
VI路径10 = "其他"
设置标志10 = ""
跳转标志10 = ""
跳转条件10 = "继续测试"
项目名11 = "自定义协议发送"
描述11 = "把系统时间写到逆变器"
输入参数11 = "16进制=0，字符=1^0+不检查应答=0，检查应答=1^1+接口号^%设备7+校验^2+协议^%Commad1"
最小值11 = "0.00"
最大值11 = "0.00"
单位11 = ""
保存11 = ""
执行方式11 = "运行"
变量11 = ""
输出参数11 = "应答数据^"
VI路径11 = "串口控制"
设置标志11 = ""
跳转标志11 = ""
跳转条件11 = "继续测试"
项目名12 = "延时"
描述12 = "延时"
输入参数12 = "等待时间(s)^3"
最小值12 = "0.00"
最大值12 = "0.00"
单位12 = ""
保存12 = ""
执行方式12 = "运行"
变量12 = ""
输出参数12 = ""
VI路径12 = "其他"
设置标志12 = ""
跳转标志12 = ""
跳转条件12 = "继续测试"

[Project41]
项目名1 = "Merge Strings"
描述1 = "条码前面加0"
输入参数1 = "变量1^0+变量2^%条码+变量3^+变量4^+变量5^+变量6^+变量7^+变量8^"
最小值1 = "0.00"
最大值1 = "0.00"
单位1 = ""
保存1 = ""
执行方式1 = "运行"
变量1 = "SN"
输出参数1 = "结果字符串^SN"
VI路径1 = "其他"
设置标志1 = ""
跳转标志1 = ""
跳转条件1 = "继续测试"
项目名2 = "MID String"
描述2 = "SN Byte1"
输入参数2 = "长度^2+偏移量^0+输入字符串^%SN"
最小值2 = "0.00"
最大值2 = "0.00"
单位2 = ""
保存2 = ""
执行方式2 = "运行"
变量2 = "SN_Byte1"
输出参数2 = "结果字符串^SN_Byte1"
VI路径2 = "其他"
设置标志2 = ""
跳转标志2 = ""
跳转条件2 = "继续测试"
项目名3 = "MID String"
描述3 = "SN Byte2"
输入参数3 = "长度^2+偏移量^2+输入字符串^%SN"
最小值3 = "0.00"
最大值3 = "0.00"
单位3 = ""
保存3 = ""
执行方式3 = "运行"
变量3 = "SN_Byte2"
输出参数3 = "结果字符串^SN_Byte2"
VI路径3 = "其他"
设置标志3 = ""
跳转标志3 = ""
跳转条件3 = "继续测试"
项目名4 = "MID String"
描述4 = "SN Byte3"
输入参数4 = "长度^2+偏移量^4+输入字符串^%SN"
最小值4 = "0.00"
最大值4 = "0.00"
单位4 = ""
保存4 = ""
执行方式4 = "运行"
变量4 = "SN_Byte3"
输出参数4 = "结果字符串^SN_Byte3"
VI路径4 = "其他"
设置标志4 = ""
跳转标志4 = ""
跳转条件4 = "继续测试"
项目名5 = "MID String"
描述5 = "SN Byte4"
输入参数5 = "长度^2+偏移量^6+输入字符串^%SN"
最小值5 = "0.00"
最大值5 = "0.00"
单位5 = ""
保存5 = ""
执行方式5 = "运行"
变量5 = "SN_Byte4"
输出参数5 = "结果字符串^SN_Byte4"
VI路径5 = "其他"
设置标志5 = ""
跳转标志5 = ""
跳转条件5 = "继续测试"
项目名6 = "MID String"
描述6 = "SN Byte5"
输入参数6 = "长度^2+偏移量^8+输入字符串^%SN"
最小值6 = "0.00"
最大值6 = "0.00"
单位6 = ""
保存6 = ""
执行方式6 = "运行"
变量6 = "SN_Byte5"
输出参数6 = "结果字符串^SN_Byte5"
VI路径6 = "其他"
设置标志6 = ""
跳转标志6 = ""
跳转条件6 = "继续测试"
项目名7 = "MID String"
描述7 = "SN Byte6"
输入参数7 = "长度^2+偏移量^10+输入字符串^%SN"
最小值7 = "0.00"
最大值7 = "0.00"
单位7 = ""
保存7 = ""
执行方式7 = "运行"
变量7 = "SN_Byte6"
输出参数7 = "结果字符串^SN_Byte6"
VI路径7 = "其他"
设置标志7 = ""
跳转标志7 = ""
跳转条件7 = "继续测试"
项目名8 = "MID String"
描述8 = "SN Byte7"
输入参数8 = "长度^2+偏移量^12+输入字符串^%SN"
最小值8 = "0.00"
最大值8 = "0.00"
单位8 = ""
保存8 = ""
执行方式8 = "运行"
变量8 = "SN_Byte7"
输出参数8 = "结果字符串^SN_Byte7"
VI路径8 = "其他"
设置标志8 = ""
跳转标志8 = ""
跳转条件8 = "继续测试"
项目名9 = "Merge Strings"
描述9 = "组合指令"
输入参数9 = "变量1^01 10 29 06 00 05 0A 00 00 00 +变量2^%SN_Byte1+变量3^ +变量4^%SN_Byte2+变量5^ +变量6^%SN_Byte3+变量7^ +变量8^%SN_Byte4"
最小值9 = "0.00"
最大值9 = "0.00"
单位9 = ""
保存9 = ""
执行方式9 = "运行"
变量9 = "Command1"
输出参数9 = "结果字符串^Command1"
VI路径9 = "其他"
设置标志9 = ""
跳转标志9 = ""
跳转条件9 = "继续测试"
项目名10 = "Merge Strings"
描述10 = "组合指令"
输入参数10 = "变量1^%Command1+变量2^ +变量3^%SN_Byte5+变量4^ +变量5^%SN_Byte6+变量6^ +变量7^%SN_Byte7+变量8^"
最小值10 = "0.00"
最大值10 = "0.00"
单位10 = ""
保存10 = ""
执行方式10 = "运行"
变量10 = "Command1"
输出参数10 = "结果字符串^Command1"
VI路径10 = "其他"
设置标志10 = ""
跳转标志10 = ""
跳转条件10 = "继续测试"
项目名11 = "自定义协议发送"
描述11 = "自定义协议发送"
输入参数11 = "16进制=0，字符=1^0+不检查应答=0，检查应答=1^1+接口号^%设备7+校验^2+协议^%Command1"
最小值11 = "0.00"
最大值11 = "0.00"
单位11 = ""
保存11 = ""
执行方式11 = "运行"
变量11 = ""
输出参数11 = "应答数据^"
VI路径11 = "串口控制"
设置标志11 = ""
跳转标志11 = ""
跳转条件11 = "继续测试"

[Project42]
项目名1 = "控制PLC继电器"
描述1 = "断开950V辅助电"
输入参数1 = "地址^1+断开=0，闭合=1^0+接口号^%设备5+通道号（1-8）,FF为全部控制^5"
最小值1 = "0.00"
最大值1 = "0.00"
单位1 = ""
保存1 = "√"
执行方式1 = "运行"
变量1 = ""
输出参数1 = ""
VI路径1 = "PLC"
设置标志1 = ""
跳转标志1 = ""
跳转条件1 = "继续测试"
项目名2 = "弹出提示框"
描述2 = "提示拔掉辅助电"
输入参数2 = "提示内容^拔掉辅助电，插入直流端子"
最小值2 = "0.00"
最大值2 = "0.00"
单位2 = ""
保存2 = "√"
执行方式2 = "运行"
变量2 = ""
输出参数2 = ""
VI路径2 = "其他"
设置标志2 = ""
跳转标志2 = ""
跳转条件2 = "继续测试"
项目名3 = "延时"
描述3 = "延时10s"
输入参数3 = "等待时间(s)^10"
最小值3 = "0.00"
最大值3 = "0.00"
单位3 = ""
保存3 = ""
执行方式3 = "运行"
变量3 = ""
输出参数3 = ""
VI路径3 = "其他"
设置标志3 = ""
跳转标志3 = ""
跳转条件3 = "继续测试"

[Project43]
项目名1 = "设置电压电流功率"
描述1 = "控制DC Source-1020V 10A"
输入参数1 = "电流(A)^10+电压(V)^1020+功率(kW)^10+接口号^%设备1"
最小值1 = "0.00"
最大值1 = "0.00"
单位1 = ""
保存1 = ""
执行方式1 = "运行"
变量1 = ""
输出参数1 = ""
VI路径1 = "直流电源"
设置标志1 = ""
跳转标志1 = ""
跳转条件1 = "继续测试"
项目名2 = "设置电压电流功率"
描述2 = "控制DC Source-1020V 20A"
输入参数2 = "电流(A)^20+电压(V)^1020+功率(kW)^20+接口号^%设备1"
最小值2 = "0.00"
最大值2 = "0.00"
单位2 = ""
保存2 = ""
执行方式2 = "运行"
变量2 = ""
输出参数2 = ""
VI路径2 = "直流电源"
设置标志2 = ""
跳转标志2 = ""
跳转条件2 = "继续测试"

[Project44]
项目名1 = "控制PLC继电器"
描述1 = "闭合软起"
输入参数1 = "地址^1+断开=0，闭合=1^1+接口号^%设备2+通道号（1-8）,FF为全部控制^7"
最小值1 = "0.00"
最大值1 = "0.00"
单位1 = ""
保存1 = ""
执行方式1 = "运行"
变量1 = ""
输出参数1 = ""
VI路径1 = "PLC"
设置标志1 = ""
跳转标志1 = ""
跳转条件1 = "继续测试"
项目名2 = "设置电压电流功率"
描述2 = "DC 1000V20A15kW"
输入参数2 = "电流(A)^20+电压(V)^1000+功率(kW)^15+接口号^%设备1"
最小值2 = "0.00"
最大值2 = "0.00"
单位2 = ""
保存2 = ""
执行方式2 = "运行"
变量2 = ""
输出参数2 = ""
VI路径2 = "直流电源"
设置标志2 = ""
跳转标志2 = ""
跳转条件2 = "继续测试"
项目名3 = "控制停止与输出"
描述3 = "DC ON"
输入参数3 = "接口号^%设备1+启动=1，停止=0^1"
最小值3 = "0.00"
最大值3 = "0.00"
单位3 = ""
保存3 = ""
执行方式3 = "运行"
变量3 = ""
输出参数3 = ""
VI路径3 = "直流电源"
设置标志3 = ""
跳转标志3 = ""
跳转条件3 = "继续测试"
项目名4 = "延时"
描述4 = "延时"
输入参数4 = "等待时间(s)^3"
最小值4 = "0.00"
最大值4 = "0.00"
单位4 = ""
保存4 = ""
执行方式4 = "运行"
变量4 = ""
输出参数4 = ""
VI路径4 = "其他"
设置标志4 = ""
跳转标志4 = ""
跳转条件4 = "继续测试"
项目名5 = "控制PLC继电器"
描述5 = "闭合PV123"
输入参数5 = "地址^1+断开=0，闭合=1^1+接口号^%设备2+通道号（1-8）,FF为全部控制^8"
最小值5 = "0.00"
最大值5 = "0.00"
单位5 = ""
保存5 = ""
执行方式5 = "运行"
变量5 = ""
输出参数5 = ""
VI路径5 = "PLC"
设置标志5 = ""
跳转标志5 = ""
跳转条件5 = "继续测试"
项目名6 = "延时"
描述6 = "延时"
输入参数6 = "等待时间(s)^3"
最小值6 = "0.00"
最大值6 = "0.00"
单位6 = ""
保存6 = ""
执行方式6 = "运行"
变量6 = ""
输出参数6 = ""
VI路径6 = "其他"
设置标志6 = ""
跳转标志6 = ""
跳转条件6 = "继续测试"
项目名7 = "控制PLC继电器"
描述7 = "断开软起"
输入参数7 = "地址^1+断开=0，闭合=1^0+接口号^%设备2+通道号（1-8）,FF为全部控制^7"
最小值7 = "0.00"
最大值7 = "0.00"
单位7 = ""
保存7 = ""
执行方式7 = "运行"
变量7 = ""
输出参数7 = ""
VI路径7 = "PLC"
设置标志7 = ""
跳转标志7 = ""
跳转条件7 = "继续测试"
项目名8 = "延时"
描述8 = "延时"
输入参数8 = "等待时间(s)^90"
最小值8 = "0.00"
最大值8 = "0.00"
单位8 = ""
保存8 = ""
执行方式8 = "运行"
变量8 = ""
输出参数8 = ""
VI路径8 = "其他"
设置标志8 = ""
跳转标志8 = ""
跳转条件8 = "继续测试"

[Project45]
项目名1 = "读取串口数据"
描述1 = "确认机器状态--报警"
输入参数1 = "16进制=0，字符=1^0+超时（s）^30+读取长度^1+读取开始位数^3+发送协议^01 04 00 2F 00 01 00 03+接口号^%设备7+校验^0+最大值^128+最小值^128"
最小值1 = "128.00"
最大值1 = "128.00"
单位1 = ""
保存1 = "√"
执行方式1 = "判断"
变量1 = ""
输出参数1 = "返回数据^"
VI路径1 = "串口控制"
设置标志1 = ""
跳转标志1 = ""
跳转条件1 = "继续测试"

[Project46]
项目名1 = "读取串口数据"
描述1 = "写eeprom使能"
输入参数1 = "16进制=0，字符=1^0+超时（s）^+读取长度^2+读取开始位数^4+发送协议^01 06 2A 0A 55 55 5E BF+接口号^%设备7+校验^0+最大值^+最小值^"
最小值1 = "21845.00"
最大值1 = "21845.00"
单位1 = ""
保存1 = "√"
执行方式1 = "运行"
变量1 = "eeprom"
输出参数1 = "返回数据^eeprom"
VI路径1 = "串口控制"
设置标志1 = ""
跳转标志1 = ""
跳转条件1 = "继续测试"
项目名2 = "延时"
描述2 = "延时"
输入参数2 = "等待时间(s)^1"
最小值2 = "0.00"
最大值2 = "0.00"
单位2 = ""
保存2 = ""
执行方式2 = "运行"
变量2 = ""
输出参数2 = ""
VI路径2 = "其他"
设置标志2 = ""
跳转标志2 = ""
跳转条件2 = "继续测试"
项目名3 = "HEX To DEC"
描述3 = "解析eeprom"
输入参数3 = "十六进制数据^%eeprom+数据类型^2"
最小值3 = "65535.00"
最大值3 = "65535.00"
单位3 = ""
保存3 = ""
执行方式3 = "判断"
变量3 = ""
输出参数3 = "转换后数据^"
VI路径3 = "其他"
设置标志3 = ""
跳转标志3 = ""
跳转条件3 = "继续测试"
项目名4 = "延时"
描述4 = "延时"
输入参数4 = "等待时间(s)^1"
最小值4 = "0.00"
最大值4 = "0.00"
单位4 = ""
保存4 = ""
执行方式4 = "运行"
变量4 = ""
输出参数4 = ""
VI路径4 = "其他"
设置标志4 = ""
跳转标志4 = ""
跳转条件4 = "继续测试"

[Project47]
项目名1 = "读取串口数据"
描述1 = "机器型号读取"
输入参数1 = "16进制=0，字符=1^0+超时（s）^+读取长度^2+读取开始位数^3+发送协议^01 03 29 0B 00 01 FD 94+接口号^%设备7+校验^0+最大值^+最小值^"
最小值1 = "5904.00"
最大值1 = "5904.00"
单位1 = ""
保存1 = ""
执行方式1 = "判断"
变量1 = "PV_Model"
输出参数1 = "返回数据^PV_Model"
VI路径1 = "串口控制"
设置标志1 = ""
跳转标志1 = ""
跳转条件1 = "继续测试"
项目名2 = "延时"
描述2 = "延时"
输入参数2 = "等待时间(s)^1"
最小值2 = "0.00"
最大值2 = "0.00"
单位2 = ""
保存2 = ""
执行方式2 = "运行"
变量2 = ""
输出参数2 = ""
VI路径2 = "其他"
设置标志2 = ""
跳转标志2 = ""
跳转条件2 = "继续测试"
项目名3 = "HEX To DEC"
描述3 = "解析PV_Model"
输入参数3 = "十六进制数据^%PV_Model+数据类型^2"
最小值3 = "22788.00"
最大值3 = "22788.00"
单位3 = ""
保存3 = "√"
执行方式3 = "判断"
变量3 = "PV_Model"
输出参数3 = "转换后数据^PV_Model"
VI路径3 = "其他"
设置标志3 = ""
跳转标志3 = ""
跳转条件3 = "继续测试"
项目名4 = "延时"
描述4 = "延时"
输入参数4 = "等待时间(s)^1"
最小值4 = "0.00"
最大值4 = "0.00"
单位4 = ""
保存4 = ""
执行方式4 = "运行"
变量4 = ""
输出参数4 = ""
VI路径4 = "其他"
设置标志4 = ""
跳转标志4 = ""
跳转条件4 = "继续测试"

[Project48]
项目名1 = "读取串口数据"
描述1 = "LCD-major版本"
输入参数1 = "16进制=0，字符=1^0+超时（s）^+读取长度^1+读取开始位数^4+发送协议^01 04 00 41 00 01 61 DE+接口号^%设备7+校验^0+最大值^+最小值^"
最小值1 = "2.00"
最大值1 = "2.00"
单位1 = ""
保存1 = "√"
执行方式1 = "判断"
变量1 = "LCD-major"
输出参数1 = "返回数据^LCD-major"
VI路径1 = "串口控制"
设置标志1 = ""
跳转标志1 = ""
跳转条件1 = "继续测试"
项目名2 = "延时"
描述2 = "延时"
输入参数2 = "等待时间(s)^1"
最小值2 = "0.00"
最大值2 = "0.00"
单位2 = ""
保存2 = ""
执行方式2 = "运行"
变量2 = ""
输出参数2 = ""
VI路径2 = "其他"
设置标志2 = ""
跳转标志2 = ""
跳转条件2 = "继续测试"

[Project49]
项目名1 = "读取串口数据"
描述1 = "DSP版本"
输入参数1 = "16进制=0，字符=1^0+超时（s）^+读取长度^2+读取开始位数^3+发送协议^01 03 29 01 00 01 DD 96+接口号^%设备7+校验^0+最大值^+最小值^"
最小值1 = "768.00"
最大值1 = "768.00"
单位1 = ""
保存1 = "√"
执行方式1 = "判断"
变量1 = "DSP"
输出参数1 = "返回数据^DSP"
VI路径1 = "串口控制"
设置标志1 = ""
跳转标志1 = ""
跳转条件1 = "继续测试"
项目名2 = "延时"
描述2 = "延时"
输入参数2 = "等待时间(s)^1"
最小值2 = "0.00"
最大值2 = "0.00"
单位2 = ""
保存2 = ""
执行方式2 = "运行"
变量2 = ""
输出参数2 = ""
VI路径2 = "其他"
设置标志2 = ""
跳转标志2 = ""
跳转条件2 = "继续测试"
项目名3 = "读取串口数据"
描述3 = "DSP bootloader版本"
输入参数3 = "16进制=0，字符=1^0+超时（s）^+读取长度^1+读取开始位数^3+发送协议^01 03 29 03 00 01 7C 56+接口号^%设备7+校验^0+最大值^+最小值^"
最小值3 = "1.00"
最大值3 = "1.00"
单位3 = ""
保存3 = "√"
执行方式3 = "判断"
变量3 = "DSP_bootloader"
输出参数3 = "返回数据^DSP_bootloader"
VI路径3 = "串口控制"
设置标志3 = ""
跳转标志3 = ""
跳转条件3 = "继续测试"
项目名4 = "延时"
描述4 = "延时"
输入参数4 = "等待时间(s)^1"
最小值4 = "0.00"
最大值4 = "0.00"
单位4 = ""
保存4 = ""
执行方式4 = "运行"
变量4 = ""
输出参数4 = ""
VI路径4 = "其他"
设置标志4 = ""
跳转标志4 = ""
跳转条件4 = "继续测试"
项目名5 = "读取串口数据"
描述5 = "232通讯测试"
输入参数5 = "16进制=0，字符=1^0+超时（s）^+读取长度^2+读取开始位数^0+发送协议^AA AA 52 01 00 00+接口号^%设备9+校验^0+最大值^+最小值^"
最小值5 = "43690.00"
最大值5 = "43690.00"
单位5 = ""
保存5 = "√"
执行方式5 = "运行"
变量5 = "RS232"
输出参数5 = "返回数据^RS232"
VI路径5 = "串口控制"
设置标志5 = ""
跳转标志5 = ""
跳转条件5 = "继续测试"
项目名6 = "延时"
描述6 = "延时"
输入参数6 = "等待时间(s)^1"
最小值6 = "0.00"
最大值6 = "0.00"
单位6 = ""
保存6 = ""
执行方式6 = "运行"
变量6 = ""
输出参数6 = ""
VI路径6 = "其他"
设置标志6 = ""
跳转标志6 = ""
跳转条件6 = "继续测试"

[Project50]
项目名1 = "读取串口数据"
描述1 = "CPLD版本"
输入参数1 = "16进制=0，字符=1^0+超时（s）^+读取长度^2+读取开始位数^3+发送协议^01 03 29 05 00 01 9C 57+接口号^%设备7+校验^0+最大值^+最小值^"
最小值1 = "256.00"
最大值1 = "256.00"
单位1 = ""
保存1 = "√"
执行方式1 = "判断"
变量1 = "CPLD"
输出参数1 = "返回数据^CPLD"
VI路径1 = "串口控制"
设置标志1 = ""
跳转标志1 = ""
跳转条件1 = "继续测试"
项目名2 = "延时"
描述2 = "延时"
输入参数2 = "等待时间(s)^1"
最小值2 = "0.00"
最大值2 = "0.00"
单位2 = ""
保存2 = ""
执行方式2 = "运行"
变量2 = ""
输出参数2 = ""
VI路径2 = "其他"
设置标志2 = ""
跳转标志2 = ""
跳转条件2 = "继续测试"

[Project51]
项目名1 = "读取串口数据"
描述1 = "MCU版本"
输入参数1 = "16进制=0，字符=1^0+超时（s）^+读取长度^2+读取开始位数^3+发送协议^01 03 29 10 00 01 8D 93+接口号^%设备7+校验^0+最大值^+最小值^"
最小值1 = "256.00"
最大值1 = "256.00"
单位1 = ""
保存1 = "√"
执行方式1 = "判断"
变量1 = "CPLD"
输出参数1 = "返回数据^CPLD"
VI路径1 = "串口控制"
设置标志1 = ""
跳转标志1 = ""
跳转条件1 = "继续测试"
项目名2 = "延时"
描述2 = "延时"
输入参数2 = "等待时间(s)^1"
最小值2 = "0.00"
最大值2 = "0.00"
单位2 = ""
保存2 = ""
执行方式2 = "运行"
变量2 = ""
输出参数2 = ""
VI路径2 = "其他"
设置标志2 = ""
跳转标志2 = ""
跳转条件2 = "继续测试"

[Project52]
项目名1 = "读取串口数据"
描述1 = "模块温度"
输入参数1 = "16进制=0，字符=1^0+超时（s）^+读取长度^2+读取开始位数^3+发送协议^01 04 83 02 00 01 B9 8E+接口号^%设备7+校验^0+最大值^+最小值^"
最小值1 = "0.00"
最大值1 = "500.00"
单位1 = ""
保存1 = "√"
执行方式1 = "判断"
变量1 = "M_Temp"
输出参数1 = "返回数据^M_Temp"
VI路径1 = "串口控制"
设置标志1 = "234"
跳转标志1 = ""
跳转条件1 = "继续测试"
项目名2 = "延时"
描述2 = "延时"
输入参数2 = "等待时间(s)^1"
最小值2 = "0.00"
最大值2 = "0.00"
单位2 = ""
保存2 = ""
执行方式2 = "运行"
变量2 = ""
输出参数2 = ""
VI路径2 = "其他"
设置标志2 = ""
跳转标志2 = ""
跳转条件2 = "继续测试"
项目名3 = "读取串口数据"
描述3 = "环境温度"
输入参数3 = "16进制=0，字符=1^0+超时（s）^+读取长度^2+读取开始位数^3+发送协议^01 04 83 03 00 01 E8 4E+接口号^%设备7+校验^0+最大值^+最小值^"
最小值3 = "0.00"
最大值3 = "500.00"
单位3 = ""
保存3 = "√"
执行方式3 = "判断"
变量3 = "H_Temp"
输出参数3 = "返回数据^H_Temp"
VI路径3 = "串口控制"
设置标志3 = ""
跳转标志3 = ""
跳转条件3 = "继续测试"
项目名4 = "延时"
描述4 = "延时"
输入参数4 = "等待时间(s)^1"
最小值4 = "0.00"
最大值4 = "0.00"
单位4 = ""
保存4 = ""
执行方式4 = "运行"
变量4 = ""
输出参数4 = ""
VI路径4 = "其他"
设置标志4 = ""
跳转标志4 = ""
跳转条件4 = "继续测试"
项目名5 = "A-B"
描述5 = "同温判断"
输入参数5 = "变量1^%M_Temp+变量2^%H_Temp"
最小值5 = "-300.00"
最大值5 = "300.00"
单位5 = ""
保存5 = "√"
执行方式5 = "判断"
变量5 = ""
输出参数5 = "输出数据^"
VI路径5 = "其他"
设置标志5 = ""
跳转标志5 = "234"
跳转条件5 = "Fail goto"
项目名6 = "延时"
描述6 = "延时"
输入参数6 = "等待时间(s)^1"
最小值6 = "0.00"
最大值6 = "0.00"
单位6 = ""
保存6 = ""
执行方式6 = "运行"
变量6 = ""
输出参数6 = ""
VI路径6 = "其他"
设置标志6 = ""
跳转标志6 = ""
跳转条件6 = "继续测试"

[Project53]
项目名1 = "自定义协议发送"
描述1 = "恢复默认值"
输入参数1 = "16进制=0，字符=1^0+不检查应答=0，检查应答=1^1+接口号^%设备7+校验^2+协议^01 06 28 2F 27 10"
最小值1 = "0.00"
最大值1 = "0.00"
单位1 = ""
保存1 = ""
执行方式1 = "运行"
变量1 = ""
输出参数1 = "应答数据^"
VI路径1 = "串口控制"
设置标志1 = "240"
跳转标志1 = ""
跳转条件1 = "继续测试"
项目名2 = "延时"
描述2 = "延时"
输入参数2 = "等待时间(s)^1"
最小值2 = "0.00"
最大值2 = "0.00"
单位2 = ""
保存2 = ""
执行方式2 = "运行"
变量2 = ""
输出参数2 = ""
VI路径2 = "其他"
设置标志2 = ""
跳转标志2 = ""
跳转条件2 = "继续测试"
项目名3 = "读取串口数据"
描述3 = "读取PV1默认值"
输入参数3 = "16进制=0，字符=1^0+超时（s）^1+读取长度^2+读取开始位数^3+发送协议^01 03 28 2F 00 01+接口号^%设备7+校验^2+最大值^10000+最小值^10000"
最小值3 = "10000.00"
最大值3 = "10000.00"
单位3 = ""
保存3 = ""
执行方式3 = "判断"
变量3 = ""
输出参数3 = "返回数据^"
VI路径3 = "串口控制"
设置标志3 = ""
跳转标志3 = ""
跳转条件3 = "继续测试"
项目名4 = "Scale校准"
描述4 = "MPPT1电压Scale校准"
输入参数4 = "DSP 读位数^3 4+DSP 读协议^01 04 00 25 00 01 20 01+测量数据读取次数^3+读取位数^+逆变器接口号^%设备7+完整协议^:MEAS? Urms4+系数1^100000+写Scale位数^4 5+写Scale协议^01 06 28 2F 00 00+仪器接口号^%设备4+字符=1，十六进制=0^1"
最小值4 = "9700.00"
最大值4 = "10300.00"
单位4 = ""
保存4 = "√"
执行方式4 = "判断"
变量4 = "Xieyi"
输出参数4 = "Scale数据^+协议字符^Xieyi"
VI路径4 = "逆变器"
设置标志4 = ""
跳转标志4 = "240"
跳转条件4 = "Fail goto"
项目名5 = "延时"
描述5 = "延时"
输入参数5 = "等待时间(s)^1"
最小值5 = "0.00"
最大值5 = "0.00"
单位5 = ""
保存5 = ""
执行方式5 = "运行"
变量5 = ""
输出参数5 = ""
VI路径5 = "其他"
设置标志5 = ""
跳转标志5 = ""
跳转条件5 = "继续测试"
项目名6 = "自定义协议发送"
描述6 = "下发校准协议"
输入参数6 = "16进制=0，字符=1^0+不检查应答=0，检查应答=1^1+接口号^%设备7+校验^2+协议^%XieYi"
最小值6 = "0.00"
最大值6 = "0.00"
单位6 = ""
保存6 = ""
执行方式6 = "运行"
变量6 = ""
输出参数6 = "应答数据^"
VI路径6 = "串口控制"
设置标志6 = ""
跳转标志6 = ""
跳转条件6 = "继续测试"
项目名7 = "延时"
描述7 = "延时"
输入参数7 = "等待时间(s)^1"
最小值7 = "0.00"
最大值7 = "0.00"
单位7 = ""
保存7 = ""
执行方式7 = "运行"
变量7 = ""
输出参数7 = ""
VI路径7 = "其他"
设置标志7 = ""
跳转标志7 = ""
跳转条件7 = "继续测试"

[Project54]
项目名1 = "自定义协议发送"
描述1 = "恢复默认值"
输入参数1 = "16进制=0，字符=1^0+不检查应答=0，检查应答=1^1+接口号^%设备7+校验^2+协议^01 06 28 31 27 10"
最小值1 = "0.00"
最大值1 = "0.00"
单位1 = ""
保存1 = ""
执行方式1 = "运行"
变量1 = ""
输出参数1 = "应答数据^"
VI路径1 = "串口控制"
设置标志1 = "247"
跳转标志1 = ""
跳转条件1 = "继续测试"
项目名2 = "延时"
描述2 = "延时"
输入参数2 = "等待时间(s)^1"
最小值2 = "0.00"
最大值2 = "0.00"
单位2 = ""
保存2 = ""
执行方式2 = "运行"
变量2 = ""
输出参数2 = ""
VI路径2 = "其他"
设置标志2 = ""
跳转标志2 = ""
跳转条件2 = "继续测试"
项目名3 = "读取串口数据"
描述3 = "读取PV2默认值"
输入参数3 = "16进制=0，字符=1^0+超时（s）^1+读取长度^2+读取开始位数^3+发送协议^01 03 28 31 00 01+接口号^%设备7+校验^2+最大值^10000+最小值^10000"
最小值3 = "10000.00"
最大值3 = "10000.00"
单位3 = ""
保存3 = ""
执行方式3 = "判断"
变量3 = ""
输出参数3 = "返回数据^"
VI路径3 = "串口控制"
设置标志3 = ""
跳转标志3 = ""
跳转条件3 = "继续测试"
项目名4 = "Scale校准"
描述4 = "MPPT2电压Scale校准"
输入参数4 = "DSP 读位数^3 4+DSP 读协议^01 04 00 27 00 01 81 C1+测量数据读取次数^3+读取位数^+逆变器接口号^%设备7+完整协议^:MEAS? Urms4+系数1^100000+写Scale位数^4 5+写Scale协议^01 06 28 31 00 00+仪器接口号^%设备4+字符=1，十六进制=0^1"
最小值4 = "9700.00"
最大值4 = "10300.00"
单位4 = ""
保存4 = "√"
执行方式4 = "判断"
变量4 = "Xieyi"
输出参数4 = "Scale数据^+协议字符^Xieyi"
VI路径4 = "逆变器"
设置标志4 = ""
跳转标志4 = "247"
跳转条件4 = "Fail goto"
项目名5 = "延时"
描述5 = "延时"
输入参数5 = "等待时间(s)^1"
最小值5 = "0.00"
最大值5 = "0.00"
单位5 = ""
保存5 = ""
执行方式5 = "运行"
变量5 = ""
输出参数5 = ""
VI路径5 = "其他"
设置标志5 = ""
跳转标志5 = ""
跳转条件5 = "继续测试"
项目名6 = "自定义协议发送"
描述6 = "下发校准协议"
输入参数6 = "16进制=0，字符=1^0+不检查应答=0，检查应答=1^1+接口号^%设备7+校验^2+协议^%XieYi"
最小值6 = "0.00"
最大值6 = "0.00"
单位6 = ""
保存6 = ""
执行方式6 = "运行"
变量6 = ""
输出参数6 = "应答数据^"
VI路径6 = "串口控制"
设置标志6 = ""
跳转标志6 = ""
跳转条件6 = "继续测试"
项目名7 = "延时"
描述7 = "延时"
输入参数7 = "等待时间(s)^1"
最小值7 = "0.00"
最大值7 = "0.00"
单位7 = ""
保存7 = ""
执行方式7 = "运行"
变量7 = ""
输出参数7 = ""
VI路径7 = "其他"
设置标志7 = ""
跳转标志7 = ""
跳转条件7 = "继续测试"

[Project55]
项目名1 = "自定义协议发送"
描述1 = "恢复默认值"
输入参数1 = "16进制=0，字符=1^0+不检查应答=0，检查应答=1^1+接口号^%设备7+校验^2+协议^01 06 28 33 27 10"
最小值1 = "0.00"
最大值1 = "0.00"
单位1 = ""
保存1 = ""
执行方式1 = "运行"
变量1 = ""
输出参数1 = "应答数据^"
VI路径1 = "串口控制"
设置标志1 = "254"
跳转标志1 = ""
跳转条件1 = "继续测试"
项目名2 = "延时"
描述2 = "延时"
输入参数2 = "等待时间(s)^1"
最小值2 = "0.00"
最大值2 = "0.00"
单位2 = ""
保存2 = ""
执行方式2 = "运行"
变量2 = ""
输出参数2 = ""
VI路径2 = "其他"
设置标志2 = ""
跳转标志2 = ""
跳转条件2 = "继续测试"
项目名3 = "读取串口数据"
描述3 = "读取PV3默认值"
输入参数3 = "16进制=0，字符=1^0+超时（s）^1+读取长度^2+读取开始位数^3+发送协议^01 03 28 33 00 01+接口号^%设备7+校验^2+最大值^10000+最小值^10000"
最小值3 = "10000.00"
最大值3 = "10000.00"
单位3 = ""
保存3 = ""
执行方式3 = "判断"
变量3 = ""
输出参数3 = "返回数据^"
VI路径3 = "串口控制"
设置标志3 = ""
跳转标志3 = ""
跳转条件3 = "继续测试"
项目名4 = "Scale校准"
描述4 = "MPPT3电压Scale校准"
输入参数4 = "DSP 读位数^3 4+DSP 读协议^01 04 00 29 00 01 E0 02+测量数据读取次数^3+读取位数^+逆变器接口号^%设备7+完整协议^:MEAS? Urms4+系数1^100000+写Scale位数^4 5+写Scale协议^01 06 28 33 00 00+仪器接口号^%设备4+字符=1，十六进制=0^1"
最小值4 = "9700.00"
最大值4 = "10300.00"
单位4 = ""
保存4 = "√"
执行方式4 = "判断"
变量4 = "Xieyi"
输出参数4 = "Scale数据^+协议字符^Xieyi"
VI路径4 = "逆变器"
设置标志4 = ""
跳转标志4 = "254"
跳转条件4 = "Fail goto"
项目名5 = "延时"
描述5 = "延时"
输入参数5 = "等待时间(s)^1"
最小值5 = "0.00"
最大值5 = "0.00"
单位5 = ""
保存5 = ""
执行方式5 = "运行"
变量5 = ""
输出参数5 = ""
VI路径5 = "其他"
设置标志5 = ""
跳转标志5 = ""
跳转条件5 = "继续测试"
项目名6 = "自定义协议发送"
描述6 = "下发校准协议"
输入参数6 = "16进制=0，字符=1^0+不检查应答=0，检查应答=1^1+接口号^%设备7+校验^2+协议^%XieYi"
最小值6 = "0.00"
最大值6 = "0.00"
单位6 = ""
保存6 = ""
执行方式6 = "运行"
变量6 = ""
输出参数6 = "应答数据^"
VI路径6 = "串口控制"
设置标志6 = ""
跳转标志6 = ""
跳转条件6 = "继续测试"
项目名7 = "延时"
描述7 = "延时"
输入参数7 = "等待时间(s)^1"
最小值7 = "0.00"
最大值7 = "0.00"
单位7 = ""
保存7 = ""
执行方式7 = "运行"
变量7 = ""
输出参数7 = ""
VI路径7 = "其他"
设置标志7 = ""
跳转标志7 = ""
跳转条件7 = "继续测试"

[Project56]
项目名1 = "自定义协议发送"
描述1 = "恢复默认值"
输入参数1 = "16进制=0，字符=1^0+不检查应答=0，检查应答=1^1+接口号^%设备7+校验^2+协议^01 06 28 35 27 10"
最小值1 = "0.00"
最大值1 = "0.00"
单位1 = ""
保存1 = ""
执行方式1 = "运行"
变量1 = ""
输出参数1 = "应答数据^"
VI路径1 = "串口控制"
设置标志1 = "261"
跳转标志1 = ""
跳转条件1 = "继续测试"
项目名2 = "延时"
描述2 = "延时"
输入参数2 = "等待时间(s)^1"
最小值2 = "0.00"
最大值2 = "0.00"
单位2 = ""
保存2 = ""
执行方式2 = "运行"
变量2 = ""
输出参数2 = ""
VI路径2 = "其他"
设置标志2 = ""
跳转标志2 = ""
跳转条件2 = "继续测试"
项目名3 = "读取串口数据"
描述3 = "读取PV4默认值"
输入参数3 = "16进制=0，字符=1^0+超时（s）^1+读取长度^2+读取开始位数^3+发送协议^01 03 28 35 00 01+接口号^%设备7+校验^2+最大值^10000+最小值^10000"
最小值3 = "10000.00"
最大值3 = "10000.00"
单位3 = ""
保存3 = ""
执行方式3 = "判断"
变量3 = ""
输出参数3 = "返回数据^"
VI路径3 = "串口控制"
设置标志3 = ""
跳转标志3 = ""
跳转条件3 = "继续测试"
项目名4 = "Scale校准"
描述4 = "MPPT4电压Scale校准"
输入参数4 = "DSP 读位数^3 4+DSP 读协议^01 04 00 53 00 01 C1 DB+测量数据读取次数^3+读取位数^+逆变器接口号^%设备7+完整协议^:MEAS? Urms4+系数1^100000+写Scale位数^4 5+写Scale协议^01 06 28 35 00 00+仪器接口号^%设备4+字符=1，十六进制=0^1"
最小值4 = "9700.00"
最大值4 = "10300.00"
单位4 = ""
保存4 = "√"
执行方式4 = "判断"
变量4 = "Xieyi"
输出参数4 = "Scale数据^+协议字符^Xieyi"
VI路径4 = "逆变器"
设置标志4 = ""
跳转标志4 = "261"
跳转条件4 = "Fail goto"
项目名5 = "延时"
描述5 = "延时"
输入参数5 = "等待时间(s)^1"
最小值5 = "0.00"
最大值5 = "0.00"
单位5 = ""
保存5 = ""
执行方式5 = "运行"
变量5 = ""
输出参数5 = ""
VI路径5 = "其他"
设置标志5 = ""
跳转标志5 = ""
跳转条件5 = "继续测试"
项目名6 = "自定义协议发送"
描述6 = "下发校准协议"
输入参数6 = "16进制=0，字符=1^0+不检查应答=0，检查应答=1^1+接口号^%设备7+校验^2+协议^%XieYi"
最小值6 = "0.00"
最大值6 = "0.00"
单位6 = ""
保存6 = ""
执行方式6 = "运行"
变量6 = ""
输出参数6 = "应答数据^"
VI路径6 = "串口控制"
设置标志6 = ""
跳转标志6 = ""
跳转条件6 = "继续测试"
项目名7 = "延时"
描述7 = "延时"
输入参数7 = "等待时间(s)^1"
最小值7 = "0.00"
最大值7 = "0.00"
单位7 = ""
保存7 = ""
执行方式7 = "运行"
变量7 = ""
输出参数7 = ""
VI路径7 = "其他"
设置标志7 = ""
跳转标志7 = ""
跳转条件7 = "继续测试"

[Project57]
项目名1 = "自定义协议发送"
描述1 = "恢复默认值"
输入参数1 = "16进制=0，字符=1^0+不检查应答=0，检查应答=1^1+接口号^%设备7+校验^2+协议^01 06 28 37 27 10"
最小值1 = "0.00"
最大值1 = "0.00"
单位1 = ""
保存1 = ""
执行方式1 = "运行"
变量1 = ""
输出参数1 = "应答数据^"
VI路径1 = "串口控制"
设置标志1 = "268"
跳转标志1 = ""
跳转条件1 = "继续测试"
项目名2 = "延时"
描述2 = "延时"
输入参数2 = "等待时间(s)^1"
最小值2 = "0.00"
最大值2 = "0.00"
单位2 = ""
保存2 = ""
执行方式2 = "运行"
变量2 = ""
输出参数2 = ""
VI路径2 = "其他"
设置标志2 = ""
跳转标志2 = ""
跳转条件2 = "继续测试"
项目名3 = "读取串口数据"
描述3 = "读取PV5默认值"
输入参数3 = "16进制=0，字符=1^0+超时（s）^1+读取长度^2+读取开始位数^3+发送协议^01 03 28 37 00 01+接口号^%设备7+校验^2+最大值^10000+最小值^10000"
最小值3 = "10000.00"
最大值3 = "10000.00"
单位3 = ""
保存3 = ""
执行方式3 = "判断"
变量3 = ""
输出参数3 = "返回数据^"
VI路径3 = "串口控制"
设置标志3 = ""
跳转标志3 = ""
跳转条件3 = "继续测试"
项目名4 = "Scale校准"
描述4 = "MPPT5电压Scale校准"
输入参数4 = "DSP 读位数^3 4+DSP 读协议^01 04 00 55 00 01 21 DA+测量数据读取次数^3+读取位数^+逆变器接口号^%设备7+完整协议^:MEAS? Urms4+系数1^100000+写Scale位数^4 5+写Scale协议^01 06 28 37 00 00+仪器接口号^%设备4+字符=1，十六进制=0^1"
最小值4 = "9700.00"
最大值4 = "10300.00"
单位4 = ""
保存4 = "√"
执行方式4 = "判断"
变量4 = "Xieyi"
输出参数4 = "Scale数据^+协议字符^Xieyi"
VI路径4 = "逆变器"
设置标志4 = ""
跳转标志4 = "268"
跳转条件4 = "Fail goto"
项目名5 = "延时"
描述5 = "延时"
输入参数5 = "等待时间(s)^1"
最小值5 = "0.00"
最大值5 = "0.00"
单位5 = ""
保存5 = ""
执行方式5 = "运行"
变量5 = ""
输出参数5 = ""
VI路径5 = "其他"
设置标志5 = ""
跳转标志5 = ""
跳转条件5 = "继续测试"
项目名6 = "自定义协议发送"
描述6 = "下发校准协议"
输入参数6 = "16进制=0，字符=1^0+不检查应答=0，检查应答=1^1+接口号^%设备7+校验^2+协议^%XieYi"
最小值6 = "0.00"
最大值6 = "0.00"
单位6 = ""
保存6 = ""
执行方式6 = "运行"
变量6 = ""
输出参数6 = "应答数据^"
VI路径6 = "串口控制"
设置标志6 = ""
跳转标志6 = ""
跳转条件6 = "继续测试"
项目名7 = "延时"
描述7 = "延时"
输入参数7 = "等待时间(s)^1"
最小值7 = "0.00"
最大值7 = "0.00"
单位7 = ""
保存7 = ""
执行方式7 = "运行"
变量7 = ""
输出参数7 = ""
VI路径7 = "其他"
设置标志7 = ""
跳转标志7 = ""
跳转条件7 = "继续测试"

[Project58]
项目名1 = "自定义协议发送"
描述1 = "恢复默认值"
输入参数1 = "16进制=0，字符=1^0+不检查应答=0，检查应答=1^1+接口号^%设备7+校验^2+协议^01 06 28 39 27 10"
最小值1 = "0.00"
最大值1 = "0.00"
单位1 = ""
保存1 = ""
执行方式1 = "运行"
变量1 = ""
输出参数1 = "应答数据^"
VI路径1 = "串口控制"
设置标志1 = "275"
跳转标志1 = ""
跳转条件1 = "继续测试"
项目名2 = "延时"
描述2 = "延时"
输入参数2 = "等待时间(s)^1"
最小值2 = "0.00"
最大值2 = "0.00"
单位2 = ""
保存2 = ""
执行方式2 = "运行"
变量2 = ""
输出参数2 = ""
VI路径2 = "其他"
设置标志2 = ""
跳转标志2 = ""
跳转条件2 = "继续测试"
项目名3 = "读取串口数据"
描述3 = "读取PV6默认值"
输入参数3 = "16进制=0，字符=1^0+超时（s）^1+读取长度^2+读取开始位数^3+发送协议^01 03 28 39 00 01+接口号^%设备7+校验^2+最大值^10000+最小值^10000"
最小值3 = "10000.00"
最大值3 = "10000.00"
单位3 = ""
保存3 = ""
执行方式3 = "判断"
变量3 = ""
输出参数3 = "返回数据^"
VI路径3 = "串口控制"
设置标志3 = ""
跳转标志3 = ""
跳转条件3 = "继续测试"
项目名4 = "Scale校准"
描述4 = "MPPT6电压Scale校准"
输入参数4 = "DSP 读位数^3 4+DSP 读协议^01 04 00 57 00 01 80 1A+测量数据读取次数^3+读取位数^+逆变器接口号^%设备7+完整协议^:MEAS? Urms4+系数1^100000+写Scale位数^4 5+写Scale协议^01 06 28 39 00 00+仪器接口号^%设备4+字符=1，十六进制=0^1"
最小值4 = "9700.00"
最大值4 = "10300.00"
单位4 = ""
保存4 = "√"
执行方式4 = "判断"
变量4 = "Xieyi"
输出参数4 = "Scale数据^+协议字符^Xieyi"
VI路径4 = "逆变器"
设置标志4 = ""
跳转标志4 = "275"
跳转条件4 = "Fail goto"
项目名5 = "延时"
描述5 = "延时"
输入参数5 = "等待时间(s)^1"
最小值5 = "0.00"
最大值5 = "0.00"
单位5 = ""
保存5 = ""
执行方式5 = "运行"
变量5 = ""
输出参数5 = ""
VI路径5 = "其他"
设置标志5 = ""
跳转标志5 = ""
跳转条件5 = "继续测试"
项目名6 = "自定义协议发送"
描述6 = "下发校准协议"
输入参数6 = "16进制=0，字符=1^0+不检查应答=0，检查应答=1^1+接口号^%设备7+校验^2+协议^%XieYi"
最小值6 = "0.00"
最大值6 = "0.00"
单位6 = ""
保存6 = ""
执行方式6 = "运行"
变量6 = ""
输出参数6 = "应答数据^"
VI路径6 = "串口控制"
设置标志6 = ""
跳转标志6 = ""
跳转条件6 = "继续测试"
项目名7 = "延时"
描述7 = "延时"
输入参数7 = "等待时间(s)^1"
最小值7 = "0.00"
最大值7 = "0.00"
单位7 = ""
保存7 = ""
执行方式7 = "运行"
变量7 = ""
输出参数7 = ""
VI路径7 = "其他"
设置标志7 = ""
跳转标志7 = ""
跳转条件7 = "继续测试"

[Project59]
项目名1 = "自定义协议发送"
描述1 = "恢复默认值"
输入参数1 = "16进制=0，字符=1^0+不检查应答=0，检查应答=1^1+接口号^%设备7+校验^2+协议^01 06 28 3B 27 10"
最小值1 = "0.00"
最大值1 = "0.00"
单位1 = ""
保存1 = ""
执行方式1 = "运行"
变量1 = ""
输出参数1 = "应答数据^"
VI路径1 = "串口控制"
设置标志1 = "282"
跳转标志1 = ""
跳转条件1 = "继续测试"
项目名2 = "延时"
描述2 = "延时"
输入参数2 = "等待时间(s)^1"
最小值2 = "0.00"
最大值2 = "0.00"
单位2 = ""
保存2 = ""
执行方式2 = "运行"
变量2 = ""
输出参数2 = ""
VI路径2 = "其他"
设置标志2 = ""
跳转标志2 = ""
跳转条件2 = "继续测试"
项目名3 = "读取串口数据"
描述3 = "读取PV7默认值"
输入参数3 = "16进制=0，字符=1^0+超时（s）^1+读取长度^2+读取开始位数^3+发送协议^01 03 28 3B 00 01+接口号^%设备7+校验^2+最大值^10000+最小值^10000"
最小值3 = "10000.00"
最大值3 = "10000.00"
单位3 = ""
保存3 = ""
执行方式3 = "判断"
变量3 = ""
输出参数3 = "返回数据^"
VI路径3 = "串口控制"
设置标志3 = ""
跳转标志3 = ""
跳转条件3 = "继续测试"
项目名4 = "Scale校准"
描述4 = "MPPT7电压Scale校准"
输入参数4 = "DSP 读位数^3 4+DSP 读协议^01 04 00 59 00 01 E1 D9+测量数据读取次数^3+读取位数^+逆变器接口号^%设备7+完整协议^:MEAS? Urms4+系数1^100000+写Scale位数^4 5+写Scale协议^01 06 28 3B 00 00+仪器接口号^%设备4+字符=1，十六进制=0^1"
最小值4 = "9700.00"
最大值4 = "10300.00"
单位4 = ""
保存4 = "√"
执行方式4 = "判断"
变量4 = "Xieyi"
输出参数4 = "Scale数据^+协议字符^Xieyi"
VI路径4 = "逆变器"
设置标志4 = ""
跳转标志4 = "282"
跳转条件4 = "Fail goto"
项目名5 = "延时"
描述5 = "延时"
输入参数5 = "等待时间(s)^1"
最小值5 = "0.00"
最大值5 = "0.00"
单位5 = ""
保存5 = ""
执行方式5 = "运行"
变量5 = ""
输出参数5 = ""
VI路径5 = "其他"
设置标志5 = ""
跳转标志5 = ""
跳转条件5 = "继续测试"
项目名6 = "自定义协议发送"
描述6 = "下发校准协议"
输入参数6 = "16进制=0，字符=1^0+不检查应答=0，检查应答=1^1+接口号^%设备7+校验^2+协议^%XieYi"
最小值6 = "0.00"
最大值6 = "0.00"
单位6 = ""
保存6 = ""
执行方式6 = "运行"
变量6 = ""
输出参数6 = "应答数据^"
VI路径6 = "串口控制"
设置标志6 = ""
跳转标志6 = ""
跳转条件6 = "继续测试"
项目名7 = "延时"
描述7 = "延时"
输入参数7 = "等待时间(s)^1"
最小值7 = "0.00"
最大值7 = "0.00"
单位7 = ""
保存7 = ""
执行方式7 = "运行"
变量7 = ""
输出参数7 = ""
VI路径7 = "其他"
设置标志7 = ""
跳转标志7 = ""
跳转条件7 = "继续测试"

[Project60]
项目名1 = "自定义协议发送"
描述1 = "恢复默认值"
输入参数1 = "16进制=0，字符=1^0+不检查应答=0，检查应答=1^1+接口号^%设备7+校验^2+协议^01 06 28 3D 27 10"
最小值1 = "0.00"
最大值1 = "0.00"
单位1 = ""
保存1 = ""
执行方式1 = "运行"
变量1 = ""
输出参数1 = "应答数据^"
VI路径1 = "串口控制"
设置标志1 = "289"
跳转标志1 = ""
跳转条件1 = "继续测试"
项目名2 = "延时"
描述2 = "延时"
输入参数2 = "等待时间(s)^1"
最小值2 = "0.00"
最大值2 = "0.00"
单位2 = ""
保存2 = ""
执行方式2 = "运行"
变量2 = ""
输出参数2 = ""
VI路径2 = "其他"
设置标志2 = ""
跳转标志2 = ""
跳转条件2 = "继续测试"
项目名3 = "读取串口数据"
描述3 = "读取PV8默认值"
输入参数3 = "16进制=0，字符=1^0+超时（s）^1+读取长度^2+读取开始位数^3+发送协议^01 03 28 3D 00 01+接口号^%设备7+校验^2+最大值^10000+最小值^10000"
最小值3 = "10000.00"
最大值3 = "10000.00"
单位3 = ""
保存3 = ""
执行方式3 = "判断"
变量3 = ""
输出参数3 = "返回数据^"
VI路径3 = "串口控制"
设置标志3 = ""
跳转标志3 = ""
跳转条件3 = "继续测试"
项目名4 = "Scale校准"
描述4 = "MPPT8电压Scale校准"
输入参数4 = "DSP 读位数^3 4+DSP 读协议^01 04 00 5B 00 01 40 19+测量数据读取次数^3+读取位数^+逆变器接口号^%设备7+完整协议^:MEAS? Urms4+系数1^100000+写Scale位数^4 5+写Scale协议^01 06 28 3D 00 00+仪器接口号^%设备4+字符=1，十六进制=0^1"
最小值4 = "9700.00"
最大值4 = "10300.00"
单位4 = ""
保存4 = "√"
执行方式4 = "判断"
变量4 = "Xieyi"
输出参数4 = "Scale数据^+协议字符^Xieyi"
VI路径4 = "逆变器"
设置标志4 = ""
跳转标志4 = "289"
跳转条件4 = "Fail goto"
项目名5 = "延时"
描述5 = "延时"
输入参数5 = "等待时间(s)^1"
最小值5 = "0.00"
最大值5 = "0.00"
单位5 = ""
保存5 = ""
执行方式5 = "运行"
变量5 = ""
输出参数5 = ""
VI路径5 = "其他"
设置标志5 = ""
跳转标志5 = ""
跳转条件5 = "继续测试"
项目名6 = "自定义协议发送"
描述6 = "下发校准协议"
输入参数6 = "16进制=0，字符=1^0+不检查应答=0，检查应答=1^1+接口号^%设备7+校验^2+协议^%XieYi"
最小值6 = "0.00"
最大值6 = "0.00"
单位6 = ""
保存6 = ""
执行方式6 = "运行"
变量6 = ""
输出参数6 = "应答数据^"
VI路径6 = "串口控制"
设置标志6 = ""
跳转标志6 = ""
跳转条件6 = "继续测试"
项目名7 = "延时"
描述7 = "延时"
输入参数7 = "等待时间(s)^1"
最小值7 = "0.00"
最大值7 = "0.00"
单位7 = ""
保存7 = ""
执行方式7 = "运行"
变量7 = ""
输出参数7 = ""
VI路径7 = "其他"
设置标志7 = ""
跳转标志7 = ""
跳转条件7 = "继续测试"

[Project61]
项目名1 = "自定义协议发送"
描述1 = "恢复默认值"
输入参数1 = "16进制=0，字符=1^0+不检查应答=0，检查应答=1^1+接口号^%设备7+校验^2+协议^01 06 28 3F 27 10"
最小值1 = "0.00"
最大值1 = "0.00"
单位1 = ""
保存1 = ""
执行方式1 = "运行"
变量1 = ""
输出参数1 = "应答数据^"
VI路径1 = "串口控制"
设置标志1 = "296"
跳转标志1 = ""
跳转条件1 = "继续测试"
项目名2 = "延时"
描述2 = "延时"
输入参数2 = "等待时间(s)^1"
最小值2 = "0.00"
最大值2 = "0.00"
单位2 = ""
保存2 = ""
执行方式2 = "运行"
变量2 = ""
输出参数2 = ""
VI路径2 = "其他"
设置标志2 = ""
跳转标志2 = ""
跳转条件2 = "继续测试"
项目名3 = "读取串口数据"
描述3 = "读取PV9默认值"
输入参数3 = "16进制=0，字符=1^0+超时（s）^1+读取长度^2+读取开始位数^3+发送协议^01 03 28 3F 00 01+接口号^%设备7+校验^2+最大值^10000+最小值^10000"
最小值3 = "10000.00"
最大值3 = "10000.00"
单位3 = ""
保存3 = ""
执行方式3 = "判断"
变量3 = ""
输出参数3 = "返回数据^"
VI路径3 = "串口控制"
设置标志3 = ""
跳转标志3 = ""
跳转条件3 = "继续测试"
项目名4 = "Scale校准"
描述4 = "MPPT9电压Scale校准"
输入参数4 = "DSP 读位数^3 4+DSP 读协议^01 04 00 5D 00 01 A0 18+测量数据读取次数^3+读取位数^+逆变器接口号^%设备7+完整协议^:MEAS? Urms4+系数1^100000+写Scale位数^4 5+写Scale协议^01 06 28 3F 00 00+仪器接口号^%设备4+字符=1，十六进制=0^1"
最小值4 = "9700.00"
最大值4 = "10300.00"
单位4 = ""
保存4 = "√"
执行方式4 = "判断"
变量4 = "Xieyi"
输出参数4 = "Scale数据^+协议字符^Xieyi"
VI路径4 = "逆变器"
设置标志4 = ""
跳转标志4 = "296"
跳转条件4 = "Fail goto"
项目名5 = "延时"
描述5 = "延时"
输入参数5 = "等待时间(s)^1"
最小值5 = "0.00"
最大值5 = "0.00"
单位5 = ""
保存5 = ""
执行方式5 = "运行"
变量5 = ""
输出参数5 = ""
VI路径5 = "其他"
设置标志5 = ""
跳转标志5 = ""
跳转条件5 = "继续测试"
项目名6 = "自定义协议发送"
描述6 = "下发校准协议"
输入参数6 = "16进制=0，字符=1^0+不检查应答=0，检查应答=1^1+接口号^%设备7+校验^2+协议^%XieYi"
最小值6 = "0.00"
最大值6 = "0.00"
单位6 = ""
保存6 = ""
执行方式6 = "运行"
变量6 = ""
输出参数6 = "应答数据^"
VI路径6 = "串口控制"
设置标志6 = ""
跳转标志6 = ""
跳转条件6 = "继续测试"
项目名7 = "延时"
描述7 = "延时"
输入参数7 = "等待时间(s)^1"
最小值7 = "0.00"
最大值7 = "0.00"
单位7 = ""
保存7 = ""
执行方式7 = "运行"
变量7 = ""
输出参数7 = ""
VI路径7 = "其他"
设置标志7 = ""
跳转标志7 = ""
跳转条件7 = "继续测试"

[Project62]
项目名1 = "自定义协议发送"
描述1 = "恢复默认值"
输入参数1 = "16进制=0，字符=1^0+不检查应答=0，检查应答=1^1+接口号^%设备7+校验^2+协议^01 06 28 41 27 10"
最小值1 = "0.00"
最大值1 = "0.00"
单位1 = ""
保存1 = ""
执行方式1 = "运行"
变量1 = ""
输出参数1 = "应答数据^"
VI路径1 = "串口控制"
设置标志1 = "303"
跳转标志1 = ""
跳转条件1 = "继续测试"
项目名2 = "延时"
描述2 = "延时"
输入参数2 = "等待时间(s)^1"
最小值2 = "0.00"
最大值2 = "0.00"
单位2 = ""
保存2 = ""
执行方式2 = "运行"
变量2 = ""
输出参数2 = ""
VI路径2 = "其他"
设置标志2 = ""
跳转标志2 = ""
跳转条件2 = "继续测试"
项目名3 = "读取串口数据"
描述3 = "读取PV10默认值"
输入参数3 = "16进制=0，字符=1^0+超时（s）^1+读取长度^2+读取开始位数^3+发送协议^01 03 28 41 00 01+接口号^%设备7+校验^2+最大值^10000+最小值^10000"
最小值3 = "10000.00"
最大值3 = "10000.00"
单位3 = ""
保存3 = ""
执行方式3 = "判断"
变量3 = ""
输出参数3 = "返回数据^"
VI路径3 = "串口控制"
设置标志3 = ""
跳转标志3 = ""
跳转条件3 = "继续测试"
项目名4 = "Scale校准"
描述4 = "MPPT10电压Scale校准"
输入参数4 = "DSP 读位数^3 4+DSP 读协议^01 04 00 5F 00 01 01 D8+测量数据读取次数^3+读取位数^+逆变器接口号^%设备7+完整协议^:MEAS? Urms4+系数1^100000+写Scale位数^4 5+写Scale协议^01 06 28 41 00 00+仪器接口号^%设备4+字符=1，十六进制=0^1"
最小值4 = "9700.00"
最大值4 = "10300.00"
单位4 = ""
保存4 = "√"
执行方式4 = "判断"
变量4 = "Xieyi"
输出参数4 = "Scale数据^+协议字符^Xieyi"
VI路径4 = "逆变器"
设置标志4 = ""
跳转标志4 = "303"
跳转条件4 = "Fail goto"
项目名5 = "延时"
描述5 = "延时"
输入参数5 = "等待时间(s)^1"
最小值5 = "0.00"
最大值5 = "0.00"
单位5 = ""
保存5 = ""
执行方式5 = "运行"
变量5 = ""
输出参数5 = ""
VI路径5 = "其他"
设置标志5 = ""
跳转标志5 = ""
跳转条件5 = "继续测试"
项目名6 = "自定义协议发送"
描述6 = "下发校准协议"
输入参数6 = "16进制=0，字符=1^0+不检查应答=0，检查应答=1^1+接口号^%设备7+校验^2+协议^%XieYi"
最小值6 = "0.00"
最大值6 = "0.00"
单位6 = ""
保存6 = ""
执行方式6 = "运行"
变量6 = ""
输出参数6 = "应答数据^"
VI路径6 = "串口控制"
设置标志6 = ""
跳转标志6 = ""
跳转条件6 = "继续测试"
项目名7 = "延时"
描述7 = "延时"
输入参数7 = "等待时间(s)^1"
最小值7 = "0.00"
最大值7 = "0.00"
单位7 = ""
保存7 = ""
执行方式7 = "运行"
变量7 = ""
输出参数7 = ""
VI路径7 = "其他"
设置标志7 = ""
跳转标志7 = ""
跳转条件7 = "继续测试"

[Project63]
项目名1 = "自定义协议发送"
描述1 = "恢复默认值"
输入参数1 = "16进制=0，字符=1^0+不检查应答=0，检查应答=1^1+接口号^%设备7+校验^2+协议^01 06 28 43 27 10"
最小值1 = "0.00"
最大值1 = "0.00"
单位1 = ""
保存1 = ""
执行方式1 = "运行"
变量1 = ""
输出参数1 = "应答数据^"
VI路径1 = "串口控制"
设置标志1 = "310"
跳转标志1 = ""
跳转条件1 = "继续测试"
项目名2 = "延时"
描述2 = "延时"
输入参数2 = "等待时间(s)^1"
最小值2 = "0.00"
最大值2 = "0.00"
单位2 = ""
保存2 = ""
执行方式2 = "运行"
变量2 = ""
输出参数2 = ""
VI路径2 = "其他"
设置标志2 = ""
跳转标志2 = ""
跳转条件2 = "继续测试"
项目名3 = "读取串口数据"
描述3 = "读取PV11默认值"
输入参数3 = "16进制=0，字符=1^0+超时（s）^1+读取长度^2+读取开始位数^3+发送协议^01 03 28 43 00 01+接口号^%设备7+校验^2+最大值^10000+最小值^10000"
最小值3 = "10000.00"
最大值3 = "10000.00"
单位3 = ""
保存3 = ""
执行方式3 = "判断"
变量3 = ""
输出参数3 = "返回数据^"
VI路径3 = "串口控制"
设置标志3 = ""
跳转标志3 = ""
跳转条件3 = "继续测试"
项目名4 = "Scale校准"
描述4 = "MPPT11电压Scale校准"
输入参数4 = "DSP 读位数^3 4+DSP 读协议^01 04 00 61 00 01 60 14+测量数据读取次数^3+读取位数^+逆变器接口号^%设备7+完整协议^:MEAS? Urms4+系数1^100000+写Scale位数^4 5+写Scale协议^01 06 28 43 00 00+仪器接口号^%设备4+字符=1，十六进制=0^1"
最小值4 = "9700.00"
最大值4 = "10300.00"
单位4 = ""
保存4 = "√"
执行方式4 = "判断"
变量4 = "Xieyi"
输出参数4 = "Scale数据^+协议字符^Xieyi"
VI路径4 = "逆变器"
设置标志4 = ""
跳转标志4 = "310"
跳转条件4 = "Fail goto"
项目名5 = "延时"
描述5 = "延时"
输入参数5 = "等待时间(s)^1"
最小值5 = "0.00"
最大值5 = "0.00"
单位5 = ""
保存5 = ""
执行方式5 = "运行"
变量5 = ""
输出参数5 = ""
VI路径5 = "其他"
设置标志5 = ""
跳转标志5 = ""
跳转条件5 = "继续测试"
项目名6 = "自定义协议发送"
描述6 = "下发校准协议"
输入参数6 = "16进制=0，字符=1^0+不检查应答=0，检查应答=1^1+接口号^%设备7+校验^2+协议^%XieYi"
最小值6 = "0.00"
最大值6 = "0.00"
单位6 = ""
保存6 = ""
执行方式6 = "运行"
变量6 = ""
输出参数6 = "应答数据^"
VI路径6 = "串口控制"
设置标志6 = ""
跳转标志6 = ""
跳转条件6 = "继续测试"
项目名7 = "延时"
描述7 = "延时"
输入参数7 = "等待时间(s)^1"
最小值7 = "0.00"
最大值7 = "0.00"
单位7 = ""
保存7 = ""
执行方式7 = "运行"
变量7 = ""
输出参数7 = ""
VI路径7 = "其他"
设置标志7 = ""
跳转标志7 = ""
跳转条件7 = "继续测试"

[Project64]
项目名1 = "自定义协议发送"
描述1 = "恢复默认值"
输入参数1 = "16进制=0，字符=1^0+不检查应答=0，检查应答=1^1+接口号^%设备7+校验^2+协议^01 06 28 45 27 10"
最小值1 = "0.00"
最大值1 = "0.00"
单位1 = ""
保存1 = ""
执行方式1 = "运行"
变量1 = ""
输出参数1 = "应答数据^"
VI路径1 = "串口控制"
设置标志1 = "317"
跳转标志1 = ""
跳转条件1 = "继续测试"
项目名2 = "延时"
描述2 = "延时"
输入参数2 = "等待时间(s)^1"
最小值2 = "0.00"
最大值2 = "0.00"
单位2 = ""
保存2 = ""
执行方式2 = "运行"
变量2 = ""
输出参数2 = ""
VI路径2 = "其他"
设置标志2 = ""
跳转标志2 = ""
跳转条件2 = "继续测试"
项目名3 = "读取串口数据"
描述3 = "读取PV12默认值"
输入参数3 = "16进制=0，字符=1^0+超时（s）^1+读取长度^2+读取开始位数^3+发送协议^01 03 28 45 00 01+接口号^%设备7+校验^2+最大值^10000+最小值^10000"
最小值3 = "10000.00"
最大值3 = "10000.00"
单位3 = ""
保存3 = ""
执行方式3 = "判断"
变量3 = ""
输出参数3 = "返回数据^"
VI路径3 = "串口控制"
设置标志3 = ""
跳转标志3 = ""
跳转条件3 = "继续测试"
项目名4 = "Scale校准"
描述4 = "MPPT12电压Scale校准"
输入参数4 = "DSP 读位数^3 4+DSP 读协议^01 04 00 63 00 01 C1 D4+测量数据读取次数^3+读取位数^+逆变器接口号^%设备7+完整协议^:MEAS? Urms4+系数1^100000+写Scale位数^4 5+写Scale协议^01 06 28 45 00 00+仪器接口号^%设备4+字符=1，十六进制=0^1"
最小值4 = "9700.00"
最大值4 = "10300.00"
单位4 = ""
保存4 = "√"
执行方式4 = "判断"
变量4 = "Xieyi"
输出参数4 = "Scale数据^+协议字符^Xieyi"
VI路径4 = "逆变器"
设置标志4 = ""
跳转标志4 = "317"
跳转条件4 = "Fail goto"
项目名5 = "延时"
描述5 = "延时"
输入参数5 = "等待时间(s)^1"
最小值5 = "0.00"
最大值5 = "0.00"
单位5 = ""
保存5 = ""
执行方式5 = "运行"
变量5 = ""
输出参数5 = ""
VI路径5 = "其他"
设置标志5 = ""
跳转标志5 = ""
跳转条件5 = "继续测试"
项目名6 = "自定义协议发送"
描述6 = "下发校准协议"
输入参数6 = "16进制=0，字符=1^0+不检查应答=0，检查应答=1^1+接口号^%设备7+校验^2+协议^%XieYi"
最小值6 = "0.00"
最大值6 = "0.00"
单位6 = ""
保存6 = ""
执行方式6 = "运行"
变量6 = ""
输出参数6 = "应答数据^"
VI路径6 = "串口控制"
设置标志6 = ""
跳转标志6 = ""
跳转条件6 = "继续测试"
项目名7 = "延时"
描述7 = "延时"
输入参数7 = "等待时间(s)^1"
最小值7 = "0.00"
最大值7 = "0.00"
单位7 = ""
保存7 = ""
执行方式7 = "运行"
变量7 = ""
输出参数7 = ""
VI路径7 = "其他"
设置标志7 = ""
跳转标志7 = ""
跳转条件7 = "继续测试"

[Project65]
项目名1 = "控制PLC继电器"
描述1 = "BUS- breaker off"
输入参数1 = "地址^1+断开=0，闭合=1^0+接口号^%设备5+通道号（1-8）,FF为全部控制^7"
最小值1 = "0.00"
最大值1 = "0.00"
单位1 = ""
保存1 = ""
执行方式1 = "运行"
变量1 = ""
输出参数1 = ""
VI路径1 = "PLC"
设置标志1 = ""
跳转标志1 = ""
跳转条件1 = "继续测试"
项目名2 = "延时"
描述2 = "延时"
输入参数2 = "等待时间(s)^2"
最小值2 = "0.00"
最大值2 = "0.00"
单位2 = ""
保存2 = ""
执行方式2 = "运行"
变量2 = ""
输出参数2 = ""
VI路径2 = "其他"
设置标志2 = ""
跳转标志2 = ""
跳转条件2 = "继续测试"
项目名3 = "控制PLC继电器"
描述3 = "BUS+ breaker on"
输入参数3 = "地址^1+断开=0，闭合=1^1+接口号^%设备5+通道号（1-8）,FF为全部控制^6"
最小值3 = "0.00"
最大值3 = "0.00"
单位3 = ""
保存3 = ""
执行方式3 = "运行"
变量3 = ""
输出参数3 = ""
VI路径3 = "PLC"
设置标志3 = ""
跳转标志3 = ""
跳转条件3 = "继续测试"
项目名4 = "延时"
描述4 = "延时"
输入参数4 = "等待时间(s)^5"
最小值4 = "0.00"
最大值4 = "0.00"
单位4 = ""
保存4 = ""
执行方式4 = "运行"
变量4 = ""
输出参数4 = ""
VI路径4 = "其他"
设置标志4 = ""
跳转标志4 = ""
跳转条件4 = "继续测试"
项目名5 = "Scale校准"
描述5 = "BUS+ VoltScale校准"
输入参数5 = "DSP 读位数^3 4+DSP 读协议^01 04 83 09 00 01 C8 4C+测量数据读取次数^1+读取位数^+逆变器接口号^%设备7+完整协议^VAL?+系数1^10000+写Scale位数^4 5+写Scale协议^01 06 28 02 00 00+仪器接口号^%设备8+字符=1，十六进制=0^1"
最小值5 = "9700.00"
最大值5 = "10300.00"
单位5 = ""
保存5 = "√"
执行方式5 = "判断"
变量5 = "Xieyi"
输出参数5 = "Scale数据^+协议字符^Xieyi"
VI路径5 = "逆变器"
设置标志5 = ""
跳转标志5 = ""
跳转条件5 = "继续测试"
项目名6 = "延时"
描述6 = "延时"
输入参数6 = "等待时间(s)^1"
最小值6 = "0.00"
最大值6 = "0.00"
单位6 = ""
保存6 = ""
执行方式6 = "运行"
变量6 = ""
输出参数6 = ""
VI路径6 = "其他"
设置标志6 = ""
跳转标志6 = ""
跳转条件6 = "继续测试"
项目名7 = "自定义协议发送"
描述7 = "下发校准系数"
输入参数7 = "16进制=0，字符=1^0+不检查应答=0，检查应答=1^1+接口号^%设备7+校验^2+协议^%Xieyi"
最小值7 = "0.00"
最大值7 = "0.00"
单位7 = ""
保存7 = ""
执行方式7 = "运行"
变量7 = ""
输出参数7 = "应答数据^"
VI路径7 = "串口控制"
设置标志7 = ""
跳转标志7 = ""
跳转条件7 = "继续测试"
项目名8 = "延时"
描述8 = "延时"
输入参数8 = "等待时间(s)^1"
最小值8 = "0.00"
最大值8 = "0.00"
单位8 = ""
保存8 = ""
执行方式8 = "运行"
变量8 = ""
输出参数8 = ""
VI路径8 = "其他"
设置标志8 = ""
跳转标志8 = ""
跳转条件8 = "继续测试"

[Project66]
项目名1 = "控制PLC继电器"
描述1 = "BUS+ breaker oFF"
输入参数1 = "地址^1+断开=0，闭合=1^0+接口号^%设备5+通道号（1-8）,FF为全部控制^6"
最小值1 = "0.00"
最大值1 = "0.00"
单位1 = ""
保存1 = ""
执行方式1 = "运行"
变量1 = ""
输出参数1 = ""
VI路径1 = "PLC"
设置标志1 = ""
跳转标志1 = ""
跳转条件1 = "继续测试"
项目名2 = "延时"
描述2 = "延时"
输入参数2 = "等待时间(s)^2"
最小值2 = "0.00"
最大值2 = "0.00"
单位2 = ""
保存2 = ""
执行方式2 = "运行"
变量2 = ""
输出参数2 = ""
VI路径2 = "其他"
设置标志2 = ""
跳转标志2 = ""
跳转条件2 = "继续测试"
项目名3 = "控制PLC继电器"
描述3 = "BUS- breaker ON"
输入参数3 = "地址^1+断开=0，闭合=1^1+接口号^%设备5+通道号（1-8）,FF为全部控制^7"
最小值3 = "0.00"
最大值3 = "0.00"
单位3 = ""
保存3 = ""
执行方式3 = "运行"
变量3 = ""
输出参数3 = ""
VI路径3 = "PLC"
设置标志3 = ""
跳转标志3 = ""
跳转条件3 = "继续测试"
项目名4 = "延时"
描述4 = "延时"
输入参数4 = "等待时间(s)^5"
最小值4 = "0.00"
最大值4 = "0.00"
单位4 = ""
保存4 = ""
执行方式4 = "运行"
变量4 = ""
输出参数4 = ""
VI路径4 = "其他"
设置标志4 = ""
跳转标志4 = ""
跳转条件4 = "继续测试"
项目名5 = "Scale校准"
描述5 = "BUS- Volt Scale校准"
输入参数5 = "DSP 读位数^3 4+DSP 读协议^01 04 83 0A 00 01 38 4C+测量数据读取次数^1+读取位数^+逆变器接口号^%设备7+完整协议^VAL?+系数1^10000+写Scale位数^4 5+写Scale协议^01 06 28 00 00 00+仪器接口号^%设备8+字符=1，十六进制=0^1"
最小值5 = "9700.00"
最大值5 = "10300.00"
单位5 = ""
保存5 = "√"
执行方式5 = "判断"
变量5 = "Xieyi"
输出参数5 = "Scale数据^+协议字符^Xieyi"
VI路径5 = "逆变器"
设置标志5 = ""
跳转标志5 = ""
跳转条件5 = "继续测试"
项目名6 = "延时"
描述6 = "延时"
输入参数6 = "等待时间(s)^1"
最小值6 = "0.00"
最大值6 = "0.00"
单位6 = ""
保存6 = ""
执行方式6 = "运行"
变量6 = ""
输出参数6 = ""
VI路径6 = "其他"
设置标志6 = ""
跳转标志6 = ""
跳转条件6 = "继续测试"
项目名7 = "自定义协议发送"
描述7 = "下发校准系数"
输入参数7 = "16进制=0，字符=1^0+不检查应答=0，检查应答=1^1+接口号^%设备7+校验^2+协议^%Xieyi"
最小值7 = "0.00"
最大值7 = "0.00"
单位7 = ""
保存7 = ""
执行方式7 = "运行"
变量7 = ""
输出参数7 = "应答数据^"
VI路径7 = "串口控制"
设置标志7 = ""
跳转标志7 = ""
跳转条件7 = "继续测试"
项目名8 = "延时"
描述8 = "延时"
输入参数8 = "等待时间(s)^1"
最小值8 = "0.00"
最大值8 = "0.00"
单位8 = ""
保存8 = ""
执行方式8 = "运行"
变量8 = ""
输出参数8 = ""
VI路径8 = "其他"
设置标志8 = ""
跳转标志8 = ""
跳转条件8 = "继续测试"
项目名9 = "控制PLC继电器"
描述9 = "BUS- breaker OFF"
输入参数9 = "地址^1+断开=0，闭合=1^0+接口号^%设备5+通道号（1-8）,FF为全部控制^7"
最小值9 = "0.00"
最大值9 = "0.00"
单位9 = ""
保存9 = ""
执行方式9 = "运行"
变量9 = ""
输出参数9 = ""
VI路径9 = "PLC"
设置标志9 = ""
跳转标志9 = ""
跳转条件9 = "继续测试"

[Project67]
项目名1 = "控制停止与输出"
描述1 = "DC OFF"
输入参数1 = "接口号^%设备1+启动=1，停止=0^0"
最小值1 = "0.00"
最大值1 = "0.00"
单位1 = ""
保存1 = ""
执行方式1 = "运行"
变量1 = ""
输出参数1 = ""
VI路径1 = "直流电源"
设置标志1 = ""
跳转标志1 = ""
跳转条件1 = "继续测试"
项目名2 = "延时"
描述2 = "延时"
输入参数2 = "等待时间(s)^60"
最小值2 = "0.00"
最大值2 = "0.00"
单位2 = ""
保存2 = ""
执行方式2 = "运行"
变量2 = ""
输出参数2 = ""
VI路径2 = "其他"
设置标志2 = ""
跳转标志2 = ""
跳转条件2 = "继续测试"
项目名3 = "控制PLC继电器"
描述3 = "250KW  ISO 电阻闭合"
输入参数3 = "地址^1+断开=0，闭合=1^1+接口号^%设备6+通道号（1-8）,FF为全部控制^1"
最小值3 = "0.00"
最大值3 = "0.00"
单位3 = ""
保存3 = ""
执行方式3 = "运行"
变量3 = ""
输出参数3 = ""
VI路径3 = "PLC"
设置标志3 = ""
跳转标志3 = ""
跳转条件3 = "继续测试"
项目名4 = "控制PLC继电器"
描述4 = "闭合电网模拟器"
输入参数4 = "地址^1+断开=0，闭合=1^1+接口号^%设备2+通道号（1-8）,FF为全部控制^1"
最小值4 = "0.00"
最大值4 = "0.00"
单位4 = ""
保存4 = ""
执行方式4 = "运行"
变量4 = ""
输出参数4 = ""
VI路径4 = "PLC"
设置标志4 = ""
跳转标志4 = ""
跳转条件4 = "继续测试"
项目名5 = "控制PLC继电器"
描述5 = "闭合逆变器A"
输入参数5 = "地址^1+断开=0，闭合=1^1+接口号^%设备2+通道号（1-8）,FF为全部控制^3"
最小值5 = "0.00"
最大值5 = "0.00"
单位5 = ""
保存5 = ""
执行方式5 = "运行"
变量5 = ""
输出参数5 = ""
VI路径5 = "PLC"
设置标志5 = ""
跳转标志5 = ""
跳转条件5 = "继续测试"
项目名6 = "控制PLC继电器"
描述6 = "闭合逆变器B"
输入参数6 = "地址^1+断开=0，闭合=1^1+接口号^%设备2+通道号（1-8）,FF为全部控制^4"
最小值6 = "0.00"
最大值6 = "0.00"
单位6 = ""
保存6 = ""
执行方式6 = "运行"
变量6 = ""
输出参数6 = ""
VI路径6 = "PLC"
设置标志6 = ""
跳转标志6 = ""
跳转条件6 = "继续测试"
项目名7 = "控制PLC继电器"
描述7 = "闭合逆变器C"
输入参数7 = "地址^1+断开=0，闭合=1^1+接口号^%设备2+通道号（1-8）,FF为全部控制^5"
最小值7 = "0.00"
最大值7 = "0.00"
单位7 = ""
保存7 = ""
执行方式7 = "运行"
变量7 = ""
输出参数7 = ""
VI路径7 = "PLC"
设置标志7 = ""
跳转标志7 = ""
跳转条件7 = "继续测试"
项目名8 = "控制PLC继电器"
描述8 = "闭合逆变器N"
输入参数8 = "地址^1+断开=0，闭合=1^1+接口号^%设备2+通道号（1-8）,FF为全部控制^6"
最小值8 = "0.00"
最大值8 = "0.00"
单位8 = ""
保存8 = ""
执行方式8 = "运行"
变量8 = ""
输出参数8 = ""
VI路径8 = "PLC"
设置标志8 = ""
跳转标志8 = ""
跳转条件8 = "继续测试"
项目名9 = "控制交流电源"
描述9 = "AC 461V50Hz ON"
输入参数9 = "A相电压^463+B相电压^463+C相电压^460+OFF=0，ON=1^1+接口号^%设备3+频率^50"
最小值9 = "0.00"
最大值9 = "0.00"
单位9 = ""
保存9 = ""
执行方式9 = "运行"
变量9 = ""
输出参数9 = ""
VI路径9 = "交流电源"
设置标志9 = ""
跳转标志9 = ""
跳转条件9 = "继续测试"
项目名10 = "延时"
描述10 = "延时"
输入参数10 = "等待时间(s)^5"
最小值10 = "0.00"
最大值10 = "0.00"
单位10 = ""
保存10 = ""
执行方式10 = "运行"
变量10 = ""
输出参数10 = ""
VI路径10 = "其他"
设置标志10 = ""
跳转标志10 = ""
跳转条件10 = "继续测试"
项目名11 = "控制PLC继电器"
描述11 = "闭合软起"
输入参数11 = "地址^1+断开=0，闭合=1^1+接口号^%设备5+通道号（1-8）,FF为全部控制^7"
最小值11 = "0.00"
最大值11 = "0.00"
单位11 = ""
保存11 = ""
执行方式11 = "运行"
变量11 = ""
输出参数11 = ""
VI路径11 = "PLC"
设置标志11 = ""
跳转标志11 = ""
跳转条件11 = "继续测试"
项目名12 = "设置电压电流功率"
描述12 = "DC 1100V20A25kW"
输入参数12 = "电流(A)^25+电压(V)^1100+功率(kW)^25+接口号^%设备1"
最小值12 = "0.00"
最大值12 = "0.00"
单位12 = ""
保存12 = ""
执行方式12 = "运行"
变量12 = ""
输出参数12 = ""
VI路径12 = "直流电源"
设置标志12 = ""
跳转标志12 = ""
跳转条件12 = "继续测试"
项目名13 = "控制停止与输出"
描述13 = "DC ON"
输入参数13 = "接口号^%设备1+启动=1，停止=0^1"
最小值13 = "0.00"
最大值13 = "0.00"
单位13 = ""
保存13 = ""
执行方式13 = "运行"
变量13 = ""
输出参数13 = ""
VI路径13 = "直流电源"
设置标志13 = ""
跳转标志13 = ""
跳转条件13 = "继续测试"
项目名14 = "控制PLC继电器"
描述14 = "闭合PV123"
输入参数14 = "地址^1+断开=0，闭合=1^1+接口号^%设备2+通道号（1-8）,FF为全部控制^8"
最小值14 = "0.00"
最大值14 = "0.00"
单位14 = ""
保存14 = ""
执行方式14 = "运行"
变量14 = ""
输出参数14 = ""
VI路径14 = "PLC"
设置标志14 = ""
跳转标志14 = ""
跳转条件14 = "继续测试"
项目名15 = "控制PLC继电器"
描述15 = "断开软起"
输入参数15 = "地址^1+断开=0，闭合=1^0+接口号^%设备2+通道号（1-8）,FF为全部控制^7"
最小值15 = "0.00"
最大值15 = "0.00"
单位15 = ""
保存15 = ""
执行方式15 = "运行"
变量15 = ""
输出参数15 = ""
VI路径15 = "PLC"
设置标志15 = ""
跳转标志15 = ""
跳转条件15 = "继续测试"
项目名16 = "延时"
描述16 = "延时"
输入参数16 = "等待时间(s)^70"
最小值16 = "0.00"
最大值16 = "0.00"
单位16 = ""
保存16 = ""
执行方式16 = "运行"
变量16 = ""
输出参数16 = ""
VI路径16 = "其他"
设置标志16 = ""
跳转标志16 = ""
跳转条件16 = "继续测试"

[Project68]
项目名1 = "读取串口数据"
描述1 = "确认机器状态--待机"
输入参数1 = "16进制=0，字符=1^0+超时（s）^5+读取长度^1+读取开始位数^3+发送协议^01 04 00 2f 00 01 00 03+接口号^%设备7+校验^0+最大值^32+最小值^32"
最小值1 = "32.00"
最大值1 = "32.00"
单位1 = ""
保存1 = "√"
执行方式1 = "判断"
变量1 = ""
输出参数1 = "返回数据^"
VI路径1 = "串口控制"
设置标志1 = ""
跳转标志1 = ""
跳转条件1 = "继续测试"

[Project69]
项目名1 = "延时"
描述1 = "延时"
输入参数1 = "等待时间(s)^60"
最小值1 = "0.00"
最大值1 = "0.00"
单位1 = ""
保存1 = ""
执行方式1 = "运行"
变量1 = ""
输出参数1 = ""
VI路径1 = "其他"
设置标志1 = ""
跳转标志1 = ""
跳转条件1 = "继续测试"
项目名2 = "读取串口数据"
描述2 = "读 ISO"
输入参数2 = "16进制=0，字符=1^0+超时（s）^3+读取长度^2+读取开始位数^3+发送协议^01 04 83 04 00 01+接口号^%设备7+校验^2+最大值^+最小值^"
最小值2 = "100.00"
最大值2 = "130.00"
单位2 = ""
保存2 = "√"
执行方式2 = "判断"
变量2 = ""
输出参数2 = "返回数据^"
VI路径2 = "串口控制"
设置标志2 = ""
跳转标志2 = ""
跳转条件2 = "继续测试"

[Project70]
项目名1 = "控制停止与输出"
描述1 = "DC OFF"
输入参数1 = "接口号^%设备1+启动=1，停止=0^0"
最小值1 = "0.00"
最大值1 = "0.00"
单位1 = ""
保存1 = ""
执行方式1 = "运行"
变量1 = ""
输出参数1 = ""
VI路径1 = "直流电源"
设置标志1 = ""
跳转标志1 = ""
跳转条件1 = "继续测试"
项目名2 = "延时"
描述2 = "延时"
输入参数2 = "等待时间(s)^35"
最小值2 = "0.00"
最大值2 = "0.00"
单位2 = ""
保存2 = ""
执行方式2 = "运行"
变量2 = ""
输出参数2 = ""
VI路径2 = "其他"
设置标志2 = ""
跳转标志2 = ""
跳转条件2 = "继续测试"
项目名3 = "控制PLC继电器"
描述3 = "250KW  ISO 电阻断开"
输入参数3 = "地址^1+断开=0，闭合=1^0+接口号^%设备6+通道号（1-8）,FF为全部控制^1"
最小值3 = "0.00"
最大值3 = "0.00"
单位3 = ""
保存3 = ""
执行方式3 = "运行"
变量3 = ""
输出参数3 = ""
VI路径3 = "PLC"
设置标志3 = ""
跳转标志3 = ""
跳转条件3 = "继续测试"
项目名4 = "延时"
描述4 = "延时"
输入参数4 = "等待时间(s)^5"
最小值4 = "0.00"
最大值4 = "0.00"
单位4 = ""
保存4 = ""
执行方式4 = "运行"
变量4 = ""
输出参数4 = ""
VI路径4 = "其他"
设置标志4 = ""
跳转标志4 = ""
跳转条件4 = "继续测试"

[Project71]
项目名1 = "设置电压电流功率"
描述1 = "DC 1100V30A25kW"
输入参数1 = "电流(A)^30+电压(V)^1100+功率(kW)^25+接口号^%设备1"
最小值1 = "0.00"
最大值1 = "0.00"
单位1 = ""
保存1 = ""
执行方式1 = "运行"
变量1 = ""
输出参数1 = ""
VI路径1 = "直流电源"
设置标志1 = ""
跳转标志1 = ""
跳转条件1 = "继续测试"
项目名2 = "控制停止与输出"
描述2 = "DC ON"
输入参数2 = "接口号^%设备1+启动=1，停止=0^1"
最小值2 = "0.00"
最大值2 = "0.00"
单位2 = ""
保存2 = ""
执行方式2 = "运行"
变量2 = ""
输出参数2 = ""
VI路径2 = "直流电源"
设置标志2 = ""
跳转标志2 = ""
跳转条件2 = "继续测试"
项目名3 = "延时"
描述3 = "延时"
输入参数3 = "等待时间(s)^60"
最小值3 = "0.00"
最大值3 = "0.00"
单位3 = ""
保存3 = ""
执行方式3 = "运行"
变量3 = ""
输出参数3 = ""
VI路径3 = "其他"
设置标志3 = ""
跳转标志3 = ""
跳转条件3 = "继续测试"

[Project72]
项目名1 = "读取串口数据"
描述1 = "确认机器状态--待机"
输入参数1 = "16进制=0，字符=1^0+超时（s）^5+读取长度^1+读取开始位数^3+发送协议^01 04 00 2f 00 01 00 03+接口号^%设备7+校验^0+最大值^32+最小值^32"
最小值1 = "32.00"
最大值1 = "32.00"
单位1 = ""
保存1 = "√"
执行方式1 = "判断"
变量1 = ""
输出参数1 = "返回数据^"
VI路径1 = "串口控制"
设置标志1 = ""
跳转标志1 = ""
跳转条件1 = "继续测试"

[Project73]
项目名1 = "读取串口数据"
描述1 = "远程开机"
输入参数1 = "16进制=0，字符=1^0+超时（s）^3+读取长度^2+读取开始位数^4+发送协议^01 06 27 00 55 55 7C 11+接口号^%设备7+校验^0+最大值^+最小值^"
最小值1 = "0.00"
最大值1 = "0.00"
单位1 = ""
保存1 = "√"
执行方式1 = "运行"
变量1 = "GJ"
输出参数1 = "返回数据^GJ"
VI路径1 = "串口控制"
设置标志1 = ""
跳转标志1 = ""
跳转条件1 = "继续测试"
项目名2 = "自定义协议发送"
描述2 = "定点1000V"
输入参数2 = "16进制=0，字符=1^0+不检查应答=0，检查应答=1^0+接口号^%设备9+校验^0+协议^AA AA 57 07 03 E8"
最小值2 = "0.00"
最大值2 = "0.00"
单位2 = ""
保存2 = "√"
执行方式2 = "运行"
变量2 = ""
输出参数2 = "应答数据^"
VI路径2 = "串口控制"
设置标志2 = ""
跳转标志2 = ""
跳转条件2 = "继续测试"
项目名3 = "延时"
描述3 = "延时"
输入参数3 = "等待时间(s)^60"
最小值3 = "0.00"
最大值3 = "0.00"
单位3 = ""
保存3 = ""
执行方式3 = "运行"
变量3 = ""
输出参数3 = ""
VI路径3 = "其他"
设置标志3 = ""
跳转标志3 = ""
跳转条件3 = "继续测试"

[Project74]
项目名1 = "读取串口数据"
描述1 = "确认机器状态--开机"
输入参数1 = "16进制=0，字符=1^0+超时（s）^5+读取长度^1+读取开始位数^3+发送协议^01 04 00 2F 00 01 00 03+接口号^%设备7+校验^0+最大值^16+最小值^16"
最小值1 = "16.00"
最大值1 = "16.00"
单位1 = ""
保存1 = "√"
执行方式1 = "判断"
变量1 = ""
输出参数1 = "返回数据^"
VI路径1 = "串口控制"
设置标志1 = ""
跳转标志1 = ""
跳转条件1 = "继续测试"

[Project75]
项目名1 = "延时"
描述1 = "延时"
输入参数1 = "等待时间(s)^50"
最小值1 = "0.00"
最大值1 = "0.00"
单位1 = ""
保存1 = ""
执行方式1 = "运行"
变量1 = ""
输出参数1 = ""
VI路径1 = "其他"
设置标志1 = ""
跳转标志1 = ""
跳转条件1 = "继续测试"
项目名2 = "读取串口数据"
描述2 = "读 GFCI"
输入参数2 = "16进制=0，字符=1^0+超时（s）^3+读取长度^2+读取开始位数^3+发送协议^01 04 83 05 00 01+接口号^%设备7+校验^2+最大值^+最小值^"
最小值2 = "30.00"
最大值2 = "132.00"
单位2 = ""
保存2 = "√"
执行方式2 = "判断"
变量2 = ""
输出参数2 = "返回数据^"
VI路径2 = "串口控制"
设置标志2 = ""
跳转标志2 = ""
跳转条件2 = "继续测试"

[Project76]
项目名1 = "控制停止与输出"
描述1 = "DC OFF"
输入参数1 = "接口号^%设备1+启动=1，停止=0^0"
最小值1 = "0.00"
最大值1 = "0.00"
单位1 = ""
保存1 = ""
执行方式1 = "运行"
变量1 = ""
输出参数1 = ""
VI路径1 = "直流电源"
设置标志1 = ""
跳转标志1 = ""
跳转条件1 = "继续测试"
项目名2 = "延时"
描述2 = "延时"
输入参数2 = "等待时间(s)^30"
最小值2 = "0.00"
最大值2 = "0.00"
单位2 = ""
保存2 = ""
执行方式2 = "运行"
变量2 = ""
输出参数2 = ""
VI路径2 = "其他"
设置标志2 = ""
跳转标志2 = ""
跳转条件2 = "继续测试"
项目名3 = "控制PLC继电器"
描述3 = "250KW  GFCI 电阻断开"
输入参数3 = "地址^1+断开=0，闭合=1^0+接口号^%设备6+通道号（1-8）,FF为全部控制^2"
最小值3 = "0.00"
最大值3 = "0.00"
单位3 = ""
保存3 = ""
执行方式3 = "运行"
变量3 = ""
输出参数3 = ""
VI路径3 = "PLC"
设置标志3 = ""
跳转标志3 = ""
跳转条件3 = "继续测试"

[Project77]
项目名1 = "控制停止与输出"
描述1 = "DC OFF"
输入参数1 = "接口号^%设备1+启动=1，停止=0^0"
最小值1 = "0.00"
最大值1 = "0.00"
单位1 = ""
保存1 = ""
执行方式1 = "运行"
变量1 = ""
输出参数1 = ""
VI路径1 = "直流电源"
设置标志1 = ""
跳转标志1 = ""
跳转条件1 = "继续测试"
项目名2 = "控制PLC继电器"
描述2 = "闭合电网模拟器"
输入参数2 = "地址^1+断开=0，闭合=1^1+接口号^%设备2+通道号（1-8）,FF为全部控制^1"
最小值2 = "0.00"
最大值2 = "0.00"
单位2 = ""
保存2 = ""
执行方式2 = "运行"
变量2 = ""
输出参数2 = ""
VI路径2 = "PLC"
设置标志2 = ""
跳转标志2 = ""
跳转条件2 = "继续测试"
项目名3 = "延时"
描述3 = "延时"
输入参数3 = "等待时间(s)^60"
最小值3 = "0.00"
最大值3 = "0.00"
单位3 = ""
保存3 = ""
执行方式3 = "运行"
变量3 = ""
输出参数3 = ""
VI路径3 = "其他"
设置标志3 = ""
跳转标志3 = ""
跳转条件3 = "继续测试"
项目名4 = "控制PLC继电器"
描述4 = "闭合逆变器A"
输入参数4 = "地址^1+断开=0，闭合=1^1+接口号^%设备2+通道号（1-8）,FF为全部控制^3"
最小值4 = "0.00"
最大值4 = "0.00"
单位4 = ""
保存4 = ""
执行方式4 = "运行"
变量4 = ""
输出参数4 = ""
VI路径4 = "PLC"
设置标志4 = ""
跳转标志4 = ""
跳转条件4 = "继续测试"
项目名5 = "控制PLC继电器"
描述5 = "闭合逆变器B"
输入参数5 = "地址^1+断开=0，闭合=1^1+接口号^%设备2+通道号（1-8）,FF为全部控制^4"
最小值5 = "0.00"
最大值5 = "0.00"
单位5 = ""
保存5 = ""
执行方式5 = "运行"
变量5 = ""
输出参数5 = ""
VI路径5 = "PLC"
设置标志5 = ""
跳转标志5 = ""
跳转条件5 = "继续测试"
项目名6 = "控制PLC继电器"
描述6 = "闭合逆变器C"
输入参数6 = "地址^1+断开=0，闭合=1^1+接口号^%设备2+通道号（1-8）,FF为全部控制^5"
最小值6 = "0.00"
最大值6 = "0.00"
单位6 = ""
保存6 = ""
执行方式6 = "运行"
变量6 = ""
输出参数6 = ""
VI路径6 = "PLC"
设置标志6 = ""
跳转标志6 = ""
跳转条件6 = "继续测试"
项目名7 = "控制PLC继电器"
描述7 = "闭合逆变器N"
输入参数7 = "地址^1+断开=0，闭合=1^1+接口号^%设备2+通道号（1-8）,FF为全部控制^6"
最小值7 = "0.00"
最大值7 = "0.00"
单位7 = ""
保存7 = ""
执行方式7 = "运行"
变量7 = ""
输出参数7 = ""
VI路径7 = "PLC"
设置标志7 = ""
跳转标志7 = ""
跳转条件7 = "继续测试"
项目名8 = "控制交流电源"
描述8 = "AC 461V50Hz ON"
输入参数8 = "A相电压^463+B相电压^463+C相电压^460+OFF=0，ON=1^1+接口号^%设备3+频率^50"
最小值8 = "0.00"
最大值8 = "0.00"
单位8 = ""
保存8 = ""
执行方式8 = "运行"
变量8 = ""
输出参数8 = ""
VI路径8 = "交流电源"
设置标志8 = ""
跳转标志8 = ""
跳转条件8 = "继续测试"
项目名9 = "延时"
描述9 = "延时"
输入参数9 = "等待时间(s)^3"
最小值9 = "0.00"
最大值9 = "0.00"
单位9 = ""
保存9 = ""
执行方式9 = "运行"
变量9 = ""
输出参数9 = ""
VI路径9 = "其他"
设置标志9 = ""
跳转标志9 = ""
跳转条件9 = "继续测试"
项目名10 = "控制PLC继电器"
描述10 = "闭合软起"
输入参数10 = "地址^1+断开=0，闭合=1^1+接口号^%设备2+通道号（1-8）,FF为全部控制^7"
最小值10 = "0.00"
最大值10 = "0.00"
单位10 = ""
保存10 = ""
执行方式10 = "运行"
变量10 = ""
输出参数10 = ""
VI路径10 = "PLC"
设置标志10 = ""
跳转标志10 = ""
跳转条件10 = "继续测试"
项目名11 = "设置电压电流功率"
描述11 = "DC 1000V25A25kW"
输入参数11 = "电流(A)^25+电压(V)^1000+功率(kW)^25+接口号^%设备1"
最小值11 = "0.00"
最大值11 = "0.00"
单位11 = ""
保存11 = ""
执行方式11 = "运行"
变量11 = ""
输出参数11 = ""
VI路径11 = "直流电源"
设置标志11 = ""
跳转标志11 = ""
跳转条件11 = "继续测试"
项目名12 = "控制停止与输出"
描述12 = "DC ON"
输入参数12 = "接口号^%设备1+启动=1，停止=0^1"
最小值12 = "0.00"
最大值12 = "0.00"
单位12 = ""
保存12 = ""
执行方式12 = "运行"
变量12 = ""
输出参数12 = ""
VI路径12 = "直流电源"
设置标志12 = ""
跳转标志12 = ""
跳转条件12 = "继续测试"
项目名13 = "控制PLC继电器"
描述13 = "闭合PV123"
输入参数13 = "地址^1+断开=0，闭合=1^1+接口号^%设备2+通道号（1-8）,FF为全部控制^8"
最小值13 = "0.00"
最大值13 = "0.00"
单位13 = ""
保存13 = ""
执行方式13 = "运行"
变量13 = ""
输出参数13 = ""
VI路径13 = "PLC"
设置标志13 = ""
跳转标志13 = ""
跳转条件13 = "继续测试"
项目名14 = "延时"
描述14 = "延时"
输入参数14 = "等待时间(s)^3"
最小值14 = "0.00"
最大值14 = "0.00"
单位14 = ""
保存14 = ""
执行方式14 = "运行"
变量14 = ""
输出参数14 = ""
VI路径14 = "其他"
设置标志14 = ""
跳转标志14 = ""
跳转条件14 = "继续测试"
项目名15 = "控制PLC继电器"
描述15 = "断开软起"
输入参数15 = "地址^1+断开=0，闭合=1^0+接口号^%设备2+通道号（1-8）,FF为全部控制^7"
最小值15 = "0.00"
最大值15 = "0.00"
单位15 = ""
保存15 = ""
执行方式15 = "运行"
变量15 = ""
输出参数15 = ""
VI路径15 = "PLC"
设置标志15 = ""
跳转标志15 = ""
跳转条件15 = "继续测试"
项目名16 = "延时"
描述16 = "延时"
输入参数16 = "等待时间(s)^90"
最小值16 = "0.00"
最大值16 = "0.00"
单位16 = ""
保存16 = ""
执行方式16 = "运行"
变量16 = ""
输出参数16 = ""
VI路径16 = "其他"
设置标志16 = ""
跳转标志16 = ""
跳转条件16 = "继续测试"

[Project78]
项目名1 = "读取串口数据"
描述1 = "确认机器状态--待机"
输入参数1 = "16进制=0，字符=1^0+超时（s）^5+读取长度^1+读取开始位数^3+发送协议^01 04 00 2f 00 01 00 03+接口号^%设备7+校验^0+最大值^32+最小值^32"
最小值1 = "32.00"
最大值1 = "32.00"
单位1 = ""
保存1 = "√"
执行方式1 = "判断"
变量1 = ""
输出参数1 = "返回数据^"
VI路径1 = "串口控制"
设置标志1 = ""
跳转标志1 = ""
跳转条件1 = "继续测试"

[Project79]
项目名1 = "自定义协议发送"
描述1 = "定点1000V"
输入参数1 = "16进制=0，字符=1^0+不检查应答=0，检查应答=1^0+接口号^%设备9+校验^0+协议^AA AA 57 07 03 E8"
最小值1 = "0.00"
最大值1 = "0.00"
单位1 = ""
保存1 = "√"
执行方式1 = "运行"
变量1 = ""
输出参数1 = "应答数据^"
VI路径1 = "串口控制"
设置标志1 = ""
跳转标志1 = ""
跳转条件1 = "继续测试"
项目名2 = "自定义协议发送"
描述2 = "定点使能"
输入参数2 = "16进制=0，字符=1^0+不检查应答=0，检查应答=1^0+接口号^%设备9+校验^0+协议^AA AA 57 01 00 01"
最小值2 = "0.00"
最大值2 = "0.00"
单位2 = ""
保存2 = ""
执行方式2 = "运行"
变量2 = ""
输出参数2 = "应答数据^"
VI路径2 = "串口控制"
设置标志2 = ""
跳转标志2 = ""
跳转条件2 = "继续测试"
项目名3 = "延时"
描述3 = "延时"
输入参数3 = "等待时间(s)^5"
最小值3 = "0.00"
最大值3 = "0.00"
单位3 = ""
保存3 = ""
执行方式3 = "运行"
变量3 = ""
输出参数3 = ""
VI路径3 = "其他"
设置标志3 = ""
跳转标志3 = ""
跳转条件3 = "继续测试"

[Project80]
项目名1 = "读取串口数据"
描述1 = "远程关机"
输入参数1 = "16进制=0，字符=1^0+超时（s）^3+读取长度^2+读取开始位数^4+发送协议^01 06 27 00 77 77 E4 A8+接口号^%设备7+校验^0+最大值^+最小值^"
最小值1 = "0.00"
最大值1 = "0.00"
单位1 = ""
保存1 = ""
执行方式1 = "运行"
变量1 = "GJ"
输出参数1 = "返回数据^GJ"
VI路径1 = "串口控制"
设置标志1 = ""
跳转标志1 = ""
跳转条件1 = "继续测试"
项目名2 = "读取串口数据"
描述2 = "开风扇"
输入参数2 = "16进制=0，字符=1^0+超时（s）^+读取长度^2+读取开始位数^4+发送协议^01 06 2A 0C 66 66 EA 5B+接口号^%设备7+校验^0+最大值^+最小值^"
最小值2 = "0.00"
最大值2 = "0.00"
单位2 = ""
保存2 = ""
执行方式2 = "运行"
变量2 = "FS"
输出参数2 = "返回数据^FS"
VI路径2 = "串口控制"
设置标志2 = ""
跳转标志2 = ""
跳转条件2 = "继续测试"
项目名3 = "延时"
描述3 = "延时"
输入参数3 = "等待时间(s)^30"
最小值3 = "0.00"
最大值3 = "0.00"
单位3 = ""
保存3 = ""
执行方式3 = "运行"
变量3 = ""
输出参数3 = ""
VI路径3 = "其他"
设置标志3 = ""
跳转标志3 = ""
跳转条件3 = "继续测试"
项目名4 = "弹出提示框"
描述4 = "请对5个风扇进行堵转测试"
输入参数4 = "提示内容^请对5个风扇进行堵转测试"
最小值4 = "0.00"
最大值4 = "0.00"
单位4 = ""
保存4 = "√"
执行方式4 = "运行"
变量4 = ""
输出参数4 = ""
VI路径4 = "其他"
设置标志4 = ""
跳转标志4 = ""
跳转条件4 = "继续测试"
项目名5 = "读取串口数据"
描述5 = "关风扇"
输入参数5 = "16进制=0，字符=1^0+超时（s）^+读取长度^2+读取开始位数^4+发送协议^01 06 2A 0C 77 77 26 07+接口号^%设备7+校验^0+最大值^+最小值^"
最小值5 = "0.00"
最大值5 = "0.00"
单位5 = ""
保存5 = ""
执行方式5 = "运行"
变量5 = "FS"
输出参数5 = "返回数据^FS"
VI路径5 = "串口控制"
设置标志5 = ""
跳转标志5 = ""
跳转条件5 = "继续测试"
项目名6 = "读取串口数据"
描述6 = "恢复风扇控制"
输入参数6 = "16进制=0，字符=1^0+超时（s）^+读取长度^2+读取开始位数^4+发送协议^01 06 2A 0C 55 55 BE BE+接口号^%设备7+校验^0+最大值^+最小值^"
最小值6 = "0.00"
最大值6 = "0.00"
单位6 = ""
保存6 = ""
执行方式6 = "运行"
变量6 = "FS"
输出参数6 = "返回数据^FS"
VI路径6 = "串口控制"
设置标志6 = ""
跳转标志6 = ""
跳转条件6 = "继续测试"
项目名7 = "延时"
描述7 = "延时"
输入参数7 = "等待时间(s)^5"
最小值7 = "0.00"
最大值7 = "0.00"
单位7 = ""
保存7 = ""
执行方式7 = "运行"
变量7 = ""
输出参数7 = ""
VI路径7 = "其他"
设置标志7 = ""
跳转标志7 = ""
跳转条件7 = "继续测试"

[Project81]
项目名1 = "自定义协议发送"
描述1 = "恢复默认值"
输入参数1 = "16进制=0，字符=1^0+不检查应答=0，检查应答=1^1+接口号^%设备7+校验^2+协议^01 06 28 0C 27 10"
最小值1 = "0.00"
最大值1 = "0.00"
单位1 = ""
保存1 = ""
执行方式1 = "运行"
变量1 = ""
输出参数1 = "应答数据^"
VI路径1 = "串口控制"
设置标志1 = "403"
跳转标志1 = ""
跳转条件1 = "继续测试"
项目名2 = "延时"
描述2 = "延时"
输入参数2 = "等待时间(s)^5"
最小值2 = "0.00"
最大值2 = "0.00"
单位2 = ""
保存2 = ""
执行方式2 = "运行"
变量2 = ""
输出参数2 = ""
VI路径2 = "其他"
设置标志2 = ""
跳转标志2 = ""
跳转条件2 = "继续测试"
项目名3 = "读取串口数据"
描述3 = "读取R电网电压默认值"
输入参数3 = "16进制=0，字符=1^0+超时（s）^1+读取长度^2+读取开始位数^3+发送协议^01 03 28 0C 00 01+接口号^%设备7+校验^2+最大值^10000+最小值^10000"
最小值3 = "10000.00"
最大值3 = "10000.00"
单位3 = ""
保存3 = ""
执行方式3 = "判断"
变量3 = ""
输出参数3 = "返回数据^"
VI路径3 = "串口控制"
设置标志3 = ""
跳转标志3 = ""
跳转条件3 = "继续测试"
项目名4 = "延时"
描述4 = "延时"
输入参数4 = "等待时间(s)^1"
最小值4 = "0.00"
最大值4 = "0.00"
单位4 = ""
保存4 = ""
执行方式4 = "运行"
变量4 = ""
输出参数4 = ""
VI路径4 = "其他"
设置标志4 = ""
跳转标志4 = ""
跳转条件4 = "继续测试"
项目名5 = "Scale校准"
描述5 = "R电网电压Scale校准"
输入参数5 = "DSP 读位数^3 4+DSP 读协议^01 04 80 03 00 01 E8 0A+测量数据读取次数^3+读取位数^+逆变器接口号^%设备7+完整协议^:MEAS? Urms1+系数1^57736+写Scale位数^4 5+写Scale协议^01 06 28 0C 00 00+仪器接口号^%设备4+字符=1，十六进制=0^1"
最小值5 = "9700.00"
最大值5 = "10300.00"
单位5 = ""
保存5 = "√"
执行方式5 = "判断"
变量5 = "Xieyi"
输出参数5 = "Scale数据^+协议字符^Xieyi"
VI路径5 = "逆变器"
设置标志5 = ""
跳转标志5 = "403"
跳转条件5 = "Fail goto"
项目名6 = "延时"
描述6 = "延时"
输入参数6 = "等待时间(s)^1"
最小值6 = "0.00"
最大值6 = "0.00"
单位6 = ""
保存6 = ""
执行方式6 = "运行"
变量6 = ""
输出参数6 = ""
VI路径6 = "其他"
设置标志6 = ""
跳转标志6 = ""
跳转条件6 = "继续测试"
项目名7 = "自定义协议发送"
描述7 = "下发校准协议"
输入参数7 = "16进制=0，字符=1^0+不检查应答=0，检查应答=1^1+接口号^%设备7+校验^2+协议^%XieYi"
最小值7 = "0.00"
最大值7 = "0.00"
单位7 = ""
保存7 = ""
执行方式7 = "运行"
变量7 = "Yingda"
输出参数7 = "应答数据^Yingda"
VI路径7 = "串口控制"
设置标志7 = ""
跳转标志7 = ""
跳转条件7 = "继续测试"
项目名8 = "延时"
描述8 = "延时"
输入参数8 = "等待时间(s)^1"
最小值8 = "0.00"
最大值8 = "0.00"
单位8 = ""
保存8 = ""
执行方式8 = "运行"
变量8 = ""
输出参数8 = ""
VI路径8 = "其他"
设置标志8 = ""
跳转标志8 = ""
跳转条件8 = "继续测试"
项目名9 = "MID String"
描述9 = "截取前面2字节"
输入参数9 = "长度^5+偏移量^0+输入字符串^%Yingda"
最小值9 = "0.00"
最大值9 = "0.00"
单位9 = ""
保存9 = ""
执行方式9 = "运行"
变量9 = "Yingda"
输出参数9 = "结果字符串^Yingda"
VI路径9 = "其他"
设置标志9 = ""
跳转标志9 = ""
跳转条件9 = "继续测试"
项目名10 = "string=string"
描述10 = "判断是否01 06"
输入参数10 = "变量1^%Yingda+变量2^01 06"
最小值10 = "0.00"
最大值10 = "0.00"
单位10 = ""
保存10 = ""
执行方式10 = "运行"
变量10 = ""
输出参数10 = ""
VI路径10 = "其他"
设置标志10 = ""
跳转标志10 = ""
跳转条件10 = "继续测试"

[Project82]
项目名1 = "自定义协议发送"
描述1 = "恢复默认值"
输入参数1 = "16进制=0，字符=1^0+不检查应答=0，检查应答=1^1+接口号^%设备7+校验^2+协议^01 06 28 0E 27 10"
最小值1 = "0.00"
最大值1 = "0.00"
单位1 = ""
保存1 = ""
执行方式1 = "运行"
变量1 = ""
输出参数1 = "应答数据^"
VI路径1 = "串口控制"
设置标志1 = "413"
跳转标志1 = ""
跳转条件1 = "继续测试"
项目名2 = "延时"
描述2 = "延时"
输入参数2 = "等待时间(s)^5"
最小值2 = "0.00"
最大值2 = "0.00"
单位2 = ""
保存2 = ""
执行方式2 = "运行"
变量2 = ""
输出参数2 = ""
VI路径2 = "其他"
设置标志2 = ""
跳转标志2 = ""
跳转条件2 = "继续测试"
项目名3 = "读取串口数据"
描述3 = "读取S电网电压默认值"
输入参数3 = "16进制=0，字符=1^0+超时（s）^1+读取长度^2+读取开始位数^3+发送协议^01 03 28 0E 00 01+接口号^%设备7+校验^2+最大值^10000+最小值^10000"
最小值3 = "10000.00"
最大值3 = "10000.00"
单位3 = ""
保存3 = ""
执行方式3 = "判断"
变量3 = ""
输出参数3 = "返回数据^"
VI路径3 = "串口控制"
设置标志3 = ""
跳转标志3 = ""
跳转条件3 = "继续测试"
项目名4 = "延时"
描述4 = "延时"
输入参数4 = "等待时间(s)^1"
最小值4 = "0.00"
最大值4 = "0.00"
单位4 = ""
保存4 = ""
执行方式4 = "运行"
变量4 = ""
输出参数4 = ""
VI路径4 = "其他"
设置标志4 = ""
跳转标志4 = ""
跳转条件4 = "继续测试"
项目名5 = "Scale校准"
描述5 = "S电网电压Scale校准"
输入参数5 = "DSP 读位数^3 4+DSP 读协议^01 04 80 04 00 01 59 CB+测量数据读取次数^3+读取位数^+逆变器接口号^%设备7+完整协议^:MEAS? Urms2+系数1^57736+写Scale位数^4 5+写Scale协议^01 06 28 0E 00 00+仪器接口号^%设备4+字符=1，十六进制=0^1"
最小值5 = "9700.00"
最大值5 = "10300.00"
单位5 = ""
